date Tue Oct 06 11:22:31 AM 2020
base hex  timestamps absolute
no internal events logged
// version 7.0.0
   0.007027 1  301             Rx   d 8 1E 0A 6C 01 00 15 16 E0
   0.008435 1  105             Rx   d 8 8E 08 FF FF FF FF FF FF
   0.013427 1  18F6101Cx       Rx   d 8 2B 88 CF 9A 82 B8 1E 68
   0.013981 1  18F6181Cx       Rx   d 8 C6 DF 07 AE 43 48 9F B7
   0.014493 1  18F6191Cx       Rx   d 8 07 51 1E A2 88 A7 0F 25
   0.015048 1  18F61A1Cx       Rx   d 8 EE E5 A5 B4 A6 FC D8 2E
   0.015560 1  18F61B1Cx       Rx   d 8 EB 6A 46 27 CC 7F 90 D1
   0.016115 1  18F61C1Cx       Rx   d 8 6C CB 39 D2 12 09 F5 67
   0.016712 1  701             Rx   d 8 00 0B 00 02 A0 D9 08 00
   0.017181 1  301             Rx   d 8 1D 0A 6D FF FF 15 37 2F
   0.017779 1  18F00B80x       Rx   d 8 07 7F 00 F1 FF FF FF FF
   0.018376 1  18F00B80x       Rx   d 8 73 7F 01 F1 FF FF FF FF
   0.018930 1  18F00B80x       Rx   d 8 A6 7C 10 F1 FF FF FF FF
   0.019485 1  18F00B80x       Rx   d 8 B5 7C 11 F1 FF FF FF FF
   0.020082 1  18FEF1FBx       Rx   d 8 FF 00 00 FF FF FF FF FF
   0.020594 1  105             Rx   d 8 8E 08 FF FF FF FF FF FF
   0.026994 1  301             Rx   d 8 1D 0A 6E 00 00 15 46 AB
   0.028445 1  105             Rx   d 8 8E 08 FF FF FF FF FF FF
   0.033394 1  18F6101Cx       Rx   d 8 B5 2E F7 90 43 95 B8 DF
   0.033949 1  18F6181Cx       Rx   d 8 5F 57 3E 94 93 AF D5 2A
   0.034503 1  18F6191Cx       Rx   d 8 6E B9 7D 47 CA 3F 1F 1E
   0.035015 1  18F61A1Cx       Rx   d 8 8F 1D 07 4B 73 1D D5 3E
   0.035570 1  18F61B1Cx       Rx   d 8 A5 AA 71 C7 EF E9 78 38
   0.036124 1  18F61C1Cx       Rx   d 8 98 60 61 29 E6 CE 17 ED
   0.036935 1  301             Rx   d 8 1D 0A 6F 00 00 15 47 57
   0.037831 1  CAC1C13x        Rx   d 8 A3 7D 10 FF FF FF FF FF
   0.038386 1  18F00B80x       Rx   d 8 07 7F 00 F1 FF FF FF FF
   0.038983 1  18F00B80x       Rx   d 8 73 7F 01 F1 FF FF FF FF
   0.039538 1  18F00B80x       Rx   d 8 A6 7C 10 F1 FF FF FF FF
   0.040135 1  18F00B80x       Rx   d 8 B5 7C 11 F1 FF FF FF FF
   0.040647 1  105             Rx   d 8 8E 08 FF FF FF FF FF FF
   0.041202 1  CAC1C80x        Rx   d 8 52 7D 10 FF FF FF FF FF
   0.046919 1  301             Rx   d 8 1D 0A 70 00 00 15 40 83
   0.048455 1  105             Rx   d 8 8E 08 FF FF FF FF FF FF
   0.053660 1  18FEF31Cx       Rx   d 8 95 4F 30 9A C0 A7 BF 84
   0.054214 1  18FEE81Cx       Rx   d 8 B6 0C 04 00 5E 65 03 5A
   0.054726 1  18F6101Cx       Rx   d 8 53 D7 8A 7D 16 EF 1A 64
   0.055281 1  18F6181Cx       Rx   d 8 25 AE 67 10 4F 66 7D 3E
   0.055836 1  18F6191Cx       Rx   d 8 0B 94 19 63 13 BA F9 47
   0.056390 1  18F61A1Cx       Rx   d 8 1C ED F3 00 B3 99 E2 B7
   0.056902 1  18F61B1Cx       Rx   d 8 A5 AA 71 C7 EF E9 78 38
   0.057372 1  301             Rx   d 8 1D 0A 71 00 00 15 41 7F
   0.057926 1  18F61C1Cx       Rx   d 8 81 E3 6B 28 A1 C1 D7 89
   0.058524 1  CAD801Cx        Rx   d 8 80 7D FC FF FF FF FF FF
   0.059078 1  CFD431Cx        Rx   d 8 FF FF 88 13 FF FF FF FD
   0.059676 1  18F00B80x       Rx   d 8 07 7F 00 F1 FF FF FF FF
   0.060230 1  18F00B80x       Rx   d 8 73 7F 01 F1 FF FF FF FF
   0.060828 1  18F00B80x       Rx   d 8 A6 7C 10 F1 FF FF FF FF
   0.061382 1  18F00B80x       Rx   d 8 B5 7C 11 F1 FF FF FF FF
   0.061937 1  18FF0113x       Rx   d 7 AA 01 00 00 00 05 00
   0.062406 1  105             Rx   d 8 8E 08 FF FF FF FF FF FF
   0.063003 1  CAD131Cx        Rx   d 8 80 7D FC FF FF FF FF FF
   0.066843 1  301             Rx   d 8 1E 0A 72 01 00 15 10 C8
   0.067355 1  701             Rx   d 8 00 0B 00 02 A0 D9 08 00
   0.068507 1  18FEF1FBx       Rx   d 8 FF 00 00 FF FF FF FF FF
   0.069019 1  105             Rx   d 8 8E 08 FF FF FF FF FF FF
   0.073414 1  18F6101Cx       Rx   d 8 97 97 B8 D7 74 8B 86 90
   0.073926 1  18F6181Cx       Rx   d 8 1A FC B4 88 C8 C1 66 31
   0.074480 1  18F6191Cx       Rx   d 8 0A 04 3B D3 56 6D 98 89
   0.075035 1  18F61A1Cx       Rx   d 8 D4 A6 67 1E 0A 06 EE C1
   0.075547 1  18F61B1Cx       Rx   d 8 B7 64 4C A4 B3 3E 0E 3A
   0.076102 1  18F61C1Cx       Rx   d 8 6B D2 55 9E 17 B8 5A 45
   0.076784 1  301             Rx   d 8 1E 0A 73 00 00 15 40 F4
   0.078277 1  18F00B80x       Rx   d 8 07 7F 00 F1 FF FF FF FF
   0.078832 1  18F00B80x       Rx   d 8 73 7F 01 F1 FF FF FF FF
   0.079429 1  18F00B80x       Rx   d 8 A6 7C 10 F1 FF FF FF FF
   0.079984 1  18F00B80x       Rx   d 8 B5 7C 11 F1 FF FF FF FF
   0.080496 1  105             Rx   d 8 8E 08 FF FF FF FF FF FF
   0.086768 1  301             Rx   d 8 1E 0A 74 00 00 15 41 80
   0.089498 1  105             Rx   d 8 8E 08 FF FF FF FF FF FF
   0.093381 1  18F6101Cx       Rx   d 8 C0 4D DB EE 6D CC 8A 6E
   0.093893 1  18F6181Cx       Rx   d 8 C1 1C 35 E3 B9 44 33 4D
   0.094448 1  18F6191Cx       Rx   d 8 39 25 12 58 6D CC ED 4E
   0.095002 1  18F61A1Cx       Rx   d 8 9F 81 FA 1A 6C 4F CB CB
   0.095514 1  18F61B1Cx       Rx   d 8 00 4F 7B 54 B3 B3 67 B6
   0.096069 1  18F61C1Cx       Rx   d 8 9A 2B AB D8 20 FD 21 A2
   0.096751 1  301             Rx   d 8 1E 0A 75 00 00 15 40 7C
   0.097221 1  701             Rx   d 8 00 0A 00 02 16 72 00 00
   0.097733 1  701             Rx   d 8 01 0A 00 02 32 00 00 00
   0.098458 1  18F00B80x       Rx   d 8 07 7F 00 F1 FF FF FF FF
   0.099055 1  18F00B80x       Rx   d 8 73 7F 01 F1 FF FF FF FF
   0.099610 1  18F00B80x       Rx   d 8 A6 7C 10 F1 FF FF FF FF
   0.100207 1  18F00B80x       Rx   d 8 B5 7C 11 F1 FF FF FF FF
   0.100719 1  105             Rx   d 8 8E 08 FF FF FF FF FF FF
   0.106692 1  301             Rx   d 8 1D 0A 76 FF FF 15 31 CB
   0.108868 1  105             Rx   d 8 8E 08 FF FF FF FF FF FF
   0.113391 1  18F6101Cx       Rx   d 8 ED 71 36 15 6D 94 0A 92
   0.113945 1  18F6181Cx       Rx   d 8 EC 84 FD 58 8D BB D5 55
   0.114457 1  18F6191Cx       Rx   d 8 AA 63 C6 34 88 B3 6F 3C
   0.115012 1  18F61A1Cx       Rx   d 8 97 11 F6 B9 F7 3A A5 DC
   0.115524 1  18F61B1Cx       Rx   d 8 EB 4A CB FF 08 8C 8E 20
   0.116121 1  18F61C1Cx       Rx   d 8 36 F3 15 83 9F CB B5 CA
   0.116676 1  301             Rx   d 8 1E 0A 77 01 00 15 10 04
   0.117615 1  CAC1C13x        Rx   d 8 A3 7D 10 FF FF FF FF FF
   0.118127 1  701             Rx   d 8 00 0B 00 02 A0 D9 08 00
   0.118681 1  18FEF1FBx       Rx   d 8 FF 00 00 FF FF FF FF FF
   0.119193 1  105             Rx   d 8 8E 08 FF FF FF FF FF FF
   0.119748 1  18F00B80x       Rx   d 8 07 7F 00 F1 FF FF FF FF
   0.120345 1  18F00B80x       Rx   d 8 73 7F 01 F1 FF FF FF FF
   0.120900 1  18F00B80x       Rx   d 8 A6 7C 10 F1 FF FF FF FF
   0.121497 1  18F00B80x       Rx   d 8 B5 7C 11 F1 FF FF FF FF
   0.122052 1  CAC1C80x        Rx   d 8 52 7D 10 FF FF FF FF FF
   0.126617 1  301             Rx   d 8 1E 0A 78 00 00 15 42 D0
   0.128452 1  105             Rx   d 8 8E 08 FF FF FF FF FF FF
   0.136601 1  301             Rx   d 8 1E 0A 79 00 00 15 43 2C
   0.138435 1  105             Rx   d 8 8E 08 FF FF FF FF FF FF
   0.139160 1  18F00B80x       Rx   d 8 07 7F 00 F1 FF FF FF FF
   0.139715 1  18F00B80x       Rx   d 8 73 7F 01 F1 FF FF FF FF
   0.140312 1  18F00B80x       Rx   d 8 A6 7C 10 F1 FF FF FF FF
   0.140867 1  18F00B80x       Rx   d 8 B5 7C 11 F1 FF FF FF FF
   0.142403 1  18F6101Cx       Rx   d 8 11 12 0C D1 33 E3 E3 58
   0.142958 1  18F6181Cx       Rx   d 8 1F BD 07 4F E5 A7 FA 8F
   0.143512 1  18F6191Cx       Rx   d 8 F5 1D 38 B3 86 1C 9D 1B
   0.144067 1  18F61A1Cx       Rx   d 8 20 DD 35 B2 4D A2 09 5B
   0.144579 1  18F61B1Cx       Rx   d 8 A5 AA 71 C7 EF E9 78 38
   0.145134 1  18F61C1Cx       Rx   d 8 30 9A F7 4B CB 7B 0A 21
   0.146541 1  301             Rx   d 8 1E 0A 7A 00 00 15 43 68
   0.148461 1  105             Rx   d 8 8E 08 FF FF FF FF FF FF
   0.156184 1  18FEF31Cx       Rx   d 8 95 4F 30 9A C0 A7 BF 84
   0.156653 1  301             Rx   d 8 1E 0A 7B 00 00 15 42 94
   0.157208 1  18FEE81Cx       Rx   d 8 B6 0C 04 00 5E 65 03 5A
   0.157762 1  18FEE61Cx       Rx   d 8 71 16 09 0A 16 23 00 00
   0.158317 1  18F6101Cx       Rx   d 8 6A DA 39 40 8C 80 88 E7
   0.158786 1  105             Rx   d 8 8E 08 FF FF FF FF FF FF
   0.159384 1  18F00B80x       Rx   d 8 07 7F 00 F1 FF FF FF FF
   0.159981 1  18F00B80x       Rx   d 8 73 7F 01 F1 FF FF FF FF
   0.160536 1  18F00B80x       Rx   d 8 A6 7C 10 F1 FF FF FF FF
   0.161090 1  18F00B80x       Rx   d 8 B5 7C 11 F1 FF FF FF FF
   0.161645 1  18F6181Cx       Rx   d 8 1E 44 B2 C7 33 1F 5D AD
   0.162200 1  18F6191Cx       Rx   d 8 C2 4E 1B D0 37 95 51 E3
   0.162712 1  18F61A1Cx       Rx   d 8 9C 76 D7 C6 04 AB 9D A4
   0.163266 1  18F61B1Cx       Rx   d 8 E8 A3 E2 C0 7F 50 F1 83
   0.163821 1  18F61C1Cx       Rx   d 8 D0 33 F2 25 4F 92 DA FF
   0.164418 1  CAD801Cx        Rx   d 8 80 7D FC FF FF FF FF FF
   0.164973 1  CFD431Cx        Rx   d 8 FF FF 88 13 FF FF FF FD
   0.165570 1  CAD131Cx        Rx   d 8 80 7D FC FF FF FF FF FF
   0.166466 1  301             Rx   d 8 1D 0A 7C FF FF 15 32 13
   0.168557 1  701             Rx   d 8 00 0B 00 02 A0 D9 08 00
   0.169197 1  18FEF1FBx       Rx   d 8 FF 00 00 FF FF FF FF FF
   0.169709 1  105             Rx   d 8 8E 08 FF FF FF FF FF FF
   0.173378 1  18F6101Cx       Rx   d 8 51 01 3A D4 8A 7C 3C 79
   0.173932 1  18F6181Cx       Rx   d 8 8F 90 6D 3B EA 99 F1 74
   0.174487 1  18F6191Cx       Rx   d 8 D3 B0 F0 79 09 51 8C 09
   0.174999 1  18F61A1Cx       Rx   d 8 DC E6 60 DE 7F 3E 5B 5D
   0.175554 1  18F61B1Cx       Rx   d 8 16 78 38 55 30 C7 3F 79
   0.176108 1  18F61C1Cx       Rx   d 8 AF 03 76 37 F5 A6 08 46
   0.176578 1  301             Rx   d 8 1E 0A 7D 01 00 15 13 DC
   0.178455 1  105             Rx   d 8 8E 08 FF FF FF FF FF FF
   0.179564 1  18F00B80x       Rx   d 8 07 7F 00 F1 FF FF FF FF
   0.180162 1  18F00B80x       Rx   d 8 73 7F 01 F1 FF FF FF FF
   0.180716 1  18F00B80x       Rx   d 8 A6 7C 10 F1 FF FF FF FF
   0.181313 1  18F00B80x       Rx   d 8 B5 7C 11 F1 FF FF FF FF
   0.186391 1  301             Rx   d 8 1E 0A 7E 00 00 15 42 58
   0.188439 1  105             Rx   d 8 8E 08 FF FF FF FF FF FF
   0.193430 1  18F6101Cx       Rx   d 8 4F 63 82 70 D3 10 18 CF
   0.193985 1  18F6181Cx       Rx   d 8 34 92 81 16 B1 5D E2 33
   0.194540 1  18F6191Cx       Rx   d 8 37 C1 5F 4B 72 D4 7D B2
   0.195052 1  18F61A1Cx       Rx   d 8 B2 B9 68 78 51 2A C3 3E
   0.195606 1  18F61B1Cx       Rx   d 8 B7 55 7A 4E 42 1C 7C 9C
   0.196161 1  18F61C1Cx       Rx   d 8 3F 4B 59 19 9A 8C 27 5F
   0.196630 1  301             Rx   d 8 1E 0A 7F 00 00 15 43 A4
   0.197441 1  CAC1C13x        Rx   d 8 A3 7D 10 FF FF FF FF FF
   0.198422 1  CAC1C80x        Rx   d 8 52 7D 10 FF FF FF FF FF
   0.198891 1  105             Rx   d 8 8E 08 FF FF FF FF FF FF
   0.199873 1  18F00B80x       Rx   d 8 07 7F 00 F1 FF FF FF FF
   0.200427 1  18F00B80x       Rx   d 8 73 7F 01 F1 FF FF FF FF
   0.201025 1  18F00B80x       Rx   d 8 A6 7C 10 F1 FF FF FF FF
   0.201579 1  18F00B80x       Rx   d 8 B5 7C 11 F1 FF FF FF FF
   0.206315 1  301             Rx   d 8 1E 0A 80 00 00 15 73 B0
   0.208448 1  105             Rx   d 8 8E 08 FF FF FF FF FF FF
   0.213398 1  18F6101Cx       Rx   d 8 88 F3 99 B1 81 FD F6 AA
   0.213952 1  18F6181Cx       Rx   d 8 36 90 C1 3E FF 2B F7 F8
   0.214507 1  18F6191Cx       Rx   d 8 F1 98 4D 7D C1 56 CA E9
   0.215019 1  18F61A1Cx       Rx   d 8 6D 95 87 38 71 55 5B 49
   0.215573 1  18F61B1Cx       Rx   d 8 8B 9B 5F 49 9E 60 85 93
   0.216128 1  18F61C1Cx       Rx   d 8 EB D4 80 83 10 0F 60 5D
   0.216597 1  301             Rx   d 8 1E 0A 81 00 00 15 72 4C
   0.218517 1  18FEF1FBx       Rx   d 8 FF 00 00 FF FF FF FF FF
   0.219157 1  105             Rx   d 8 8E 08 FF FF FF FF FF FF
   0.219627 1  701             Rx   d 8 00 0B 00 02 A0 D9 08 00
   0.220224 1  18F00B80x       Rx   d 8 07 7F 00 F1 FF FF FF FF
   0.220779 1  18F00B80x       Rx   d 8 73 7F 01 F1 FF FF FF FF
   0.221376 1  18F00B80x       Rx   d 8 00 7D 10 F1 FF FF FF FF
   0.221931 1  18F00B80x       Rx   d 8 00 7D 11 F1 FF FF FF FF
   0.226240 1  301             Rx   d 8 1E 0A 82 00 00 15 72 08
   0.228458 1  105             Rx   d 8 8E 08 FF FF FF FF FF FF
   0.234090 1  18F6101Cx       Rx   d 8 B6 31 20 E8 D9 4B 61 02
   0.234687 1  18F6181Cx       Rx   d 8 3A 28 0E DC 58 60 0A 9D
   0.235199 1  18F6191Cx       Rx   d 8 80 32 B8 19 99 78 E0 3F
   0.235754 1  18F61A1Cx       Rx   d 8 CF 67 A1 4F DF 34 94 20
   0.236223 1  301             Rx   d 8 1E 0A 83 00 00 15 73 F4
   0.236778 1  18F61B1Cx       Rx   d 8 72 F3 DE EC C9 B5 96 5D
   0.237290 1  18F61C1Cx       Rx   d 8 9A 19 9A EB C9 68 8A 3E
   0.238442 1  105             Rx   d 8 8E 08 FF FF FF FF FF FF
   0.240575 1  18F00B80x       Rx   d 8 07 7F 00 F1 FF FF FF FF
   0.241172 1  18F00B80x       Rx   d 8 73 7F 01 F1 FF FF FF FF
   0.241727 1  18F00B80x       Rx   d 8 00 7D 10 F1 FF FF FF FF
   0.242324 1  18F00B80x       Rx   d 8 00 7D 11 F1 FF FF FF FF
   0.246164 1  301             Rx   d 8 1D 0A 84 FF FF 15 03 73
   0.248426 1  105             Rx   d 8 8E 08 FF FF FF FF FF FF
   0.253417 1  18FEF31Cx       Rx   d 8 95 4F 30 9A BF A7 BF 84
   0.254057 1  18FEE81Cx       Rx   d 8 B6 0C 04 00 5E 65 03 5A
   0.254569 1  18F6101Cx       Rx   d 8 38 8B 69 C2 E2 F0 2D B1
   0.255124 1  18F6181Cx       Rx   d 8 44 2D 1B AC DF E8 3D 84
   0.255679 1  18F6191Cx       Rx   d 8 A2 66 58 11 1E 6D ED FF
   0.256191 1  18F61A1Cx       Rx   d 8 DE 06 06 E2 54 CB 36 EC
   0.256660 1  301             Rx   d 8 1E 0A 85 01 00 15 22 BC
   0.257215 1  18F61B1Cx       Rx   d 8 72 F3 DE EC C9 B5 96 5D
   0.257769 1  18F61C1Cx       Rx   d 8 3C 00 B9 5C 90 AA 84 15
   0.258324 1  CAD801Cx        Rx   d 8 80 7D FC FF FF FF FF FF
   0.258836 1  105             Rx   d 8 8E 08 FF FF FF FF FF FF
   0.259433 1  CAD131Cx        Rx   d 8 80 7D FC FF FF FF FF FF
   0.259988 1  CFD431Cx        Rx   d 8 FF FF 88 13 FF FF FF FD
   0.260798 1  18F00B80x       Rx   d 8 07 7F 00 F1 FF FF FF FF
   0.261353 1  18F00B80x       Rx   d 8 73 7F 01 F1 FF FF FF FF
   0.261950 1  18F00B80x       Rx   d 8 00 7D 10 F1 FF FF FF FF
   0.262505 1  18F00B80x       Rx   d 8 00 7D 11 F1 FF FF FF FF
   0.266131 1  301             Rx   d 8 1E 0A 86 00 00 15 73 38
   0.268521 1  18FEF1FBx       Rx   d 8 FF 00 00 FF FF FF FF FF
   0.268990 1  105             Rx   d 8 8E 08 FF FF FF FF FF FF
   0.269929 1  701             Rx   d 8 00 0B 00 02 A0 D9 08 00
   0.273342 1  18F6101Cx       Rx   d 8 D3 58 70 5D F2 84 40 CF
   0.273897 1  18F6181Cx       Rx   d 8 31 73 7B 44 2E 32 D4 1C
   0.274408 1  18F6191Cx       Rx   d 8 4E DC 56 4A 5F 11 6C 49
   0.274963 1  18F61A1Cx       Rx   d 8 22 8E 11 B9 E8 78 72 76
   0.275475 1  18F61B1Cx       Rx   d 8 72 F3 DE EC C9 B5 96 5D
   0.276072 1  18F61C1Cx       Rx   d 8 3B F3 FB 6E 1D 78 C5 C5
   0.276542 1  301             Rx   d 8 1E 0A 87 00 00 15 72 C4
   0.277267 1  CAC1C13x        Rx   d 8 A3 7D 10 FF FF FF FF FF
   0.278206 1  CAC1C80x        Rx   d 8 58 7D 10 FF FF FF FF FF
   0.278718 1  105             Rx   d 8 8E 08 FF FF FF FF FF FF
   0.280979 1  18F00B80x       Rx   d 8 07 7F 00 F1 FF FF FF FF
   0.281534 1  18F00B80x       Rx   d 8 73 7F 01 F1 FF FF FF FF
   0.282131 1  18F00B80x       Rx   d 8 00 7D 10 F1 FF FF FF FF
   0.282728 1  18F00B80x       Rx   d 8 00 7D 11 F1 FF FF FF FF
   0.286056 1  301             Rx   d 8 1E 0A 88 00 00 15 71 D0
   0.289256 1  105             Rx   d 8 8E 08 FF FF FF FF FF FF
   0.293394 1  18F6101Cx       Rx   d 8 BC 19 0A 39 E0 1B DD F0
   0.293949 1  18F6181Cx       Rx   d 8 98 FA 60 C7 63 61 0C F4
   0.294461 1  18F6191Cx       Rx   d 8 10 95 45 03 05 2F B6 E6
   0.295016 1  18F61A1Cx       Rx   d 8 1D 97 A3 0A BB A5 96 38
   0.295570 1  18F61B1Cx       Rx   d 8 20 73 50 84 6C 60 55 24
   0.296040 1  301             Rx   d 8 1E 0A 89 00 00 15 70 2C
   0.296552 1  18F61C1Cx       Rx   d 8 86 A0 FC B8 43 27 8B 32
   0.297533 1  18FF0113x       Rx   d 7 AA 01 00 00 00 05 00
   0.298472 1  105             Rx   d 8 8E 08 FF FF FF FF FF FF
   0.301159 1  18F00B80x       Rx   d 8 07 7F 00 F1 FF FF FF FF
   0.301757 1  18F00B80x       Rx   d 8 73 7F 01 F1 FF FF FF FF
   0.302311 1  18F00B80x       Rx   d 8 00 7D 10 F1 FF FF FF FF
   0.302909 1  18F00B80x       Rx   d 8 00 7D 11 F1 FF FF FF FF
   0.305981 1  301             Rx   d 8 1E 0A 8A 00 00 15 70 68
   0.308455 1  105             Rx   d 8 8E 08 FF FF FF FF FF FF
   0.313319 1  18F6101Cx       Rx   d 8 C2 92 B4 DE D0 A9 D4 D2
   0.313916 1  18F6181Cx       Rx   d 8 0F 7F 2F 43 23 11 34 7F
   0.314428 1  18F6191Cx       Rx   d 8 9C B3 FD 35 EE CA 49 96
   0.314983 1  18F61A1Cx       Rx   d 8 6E 63 4D 5C 85 5E 18 B3
   0.315538 1  18F61B1Cx       Rx   d 8 2F 73 FA 0C 18 29 E2 C0
   0.315964 1  301             Rx   d 8 1E 0A 8B 00 00 15 71 94
   0.316519 1  18F61C1Cx       Rx   d 8 34 50 66 16 9F AB A8 4C
   0.317073 1  18FF0213x       Rx   d 6 0C 35 DA 00 00 00
   0.318524 1  18FEF1FBx       Rx   d 8 FF 00 00 FF FF FF FF FF
   0.318993 1  105             Rx   d 8 8E 08 FF FF FF FF FF FF
   0.320529 1  701             Rx   d 8 00 0B 00 02 A0 D9 08 00
   0.321511 1  18F00B80x       Rx   d 8 07 7F 00 F1 FF FF FF FF
   0.322065 1  18F00B80x       Rx   d 8 73 7F 01 F1 FF FF FF FF
   0.322663 1  18F00B80x       Rx   d 8 00 7D 10 F1 FF FF FF FF
   0.323260 1  18F00B80x       Rx   d 8 00 7D 11 F1 FF FF FF FF
   0.325905 1  301             Rx   d 8 1E 0A 8C 00 00 15 70 E0
   0.328465 1  105             Rx   d 8 8E 08 FF FF FF FF FF FF
   0.335846 1  301             Rx   d 8 1D 0A 8D FF FF 15 00 EF
   0.338449 1  105             Rx   d 8 8E 08 FF FF FF FF FF FF
   0.341734 1  18F00B80x       Rx   d 8 07 7F 00 F1 FF FF FF FF
   0.342289 1  18F00B80x       Rx   d 8 73 7F 01 F1 FF FF FF FF
   0.342886 1  18F00B80x       Rx   d 8 00 7D 10 F1 FF FF FF FF
   0.343440 1  18F00B80x       Rx   d 8 00 7D 11 F1 FF FF FF FF
   0.343995 1  18F6101Cx       Rx   d 8 1A C6 46 C8 6B 95 91 E1
   0.344550 1  18F6181Cx       Rx   d 8 7B EA BC B3 68 D5 5E 19
   0.345104 1  18F6191Cx       Rx   d 8 7B 60 2E E0 C9 E7 B4 84
   0.345616 1  18F61A1Cx       Rx   d 8 AB BE 67 1C D2 99 E1 10
   0.346086 1  301             Rx   d 8 1D 0A 8E 00 00 15 71 6B
   0.346640 1  18F61B1Cx       Rx   d 8 20 73 50 84 6C 60 55 24
   0.347195 1  18F61C1Cx       Rx   d 8 F4 3F 7C 71 01 51 D0 D2
   0.347664 1  701             Rx   d 8 00 0A 00 02 4E 72 00 00
   0.348176 1  701             Rx   d 8 01 0A 00 02 1F 00 00 00
   0.348646 1  105             Rx   d 8 8E 08 FF FF FF FF FF FF
   0.354192 1  18FEF31Cx       Rx   d 8 95 4F 30 9A BF A7 BF 84
   0.354747 1  18FEE81Cx       Rx   d 8 B6 0C 04 00 5E 65 03 5A
   0.355301 1  18F6101Cx       Rx   d 8 F7 BF DF 6A 1E B7 82 3A
   0.355856 1  18F6181Cx       Rx   d 8 3E F4 80 31 41 42 6C 1C
   0.356325 1  301             Rx   d 8 1E 0A 8F 01 00 15 21 64
   0.356880 1  18F6191Cx       Rx   d 8 5B CA 5F 98 E7 84 0C D2
   0.357435 1  CAC1C13x        Rx   d 8 A3 7D 10 FF FF FF FF FF
   0.357947 1  18F61A1Cx       Rx   d 8 42 E3 E9 D6 1D D5 EE AF
   0.358544 1  CAC1C80x        Rx   d 8 58 7D 10 FF FF FF FF FF
   0.359013 1  105             Rx   d 8 8E 08 FF FF FF FF FF FF
   0.359568 1  18F61B1Cx       Rx   d 8 B1 F4 56 12 80 32 16 44
   0.360122 1  18F61C1Cx       Rx   d 8 F4 3F 7C 71 01 51 D0 D2
   0.360677 1  CAD801Cx        Rx   d 8 80 7D FC FF FF FF FF FF
   0.361274 1  CFD431Cx        Rx   d 8 FF FF 88 13 FF FF FF FD
   0.361872 1  CAD131Cx        Rx   d 8 80 7D FC FF FF FF FF FF
   0.362426 1  18F00B80x       Rx   d 8 07 7F 00 F1 FF FF FF FF
   0.363024 1  18F00B80x       Rx   d 8 73 7F 01 F1 FF FF FF FF
   0.363578 1  18F00B80x       Rx   d 8 00 7D 10 F1 FF FF FF FF
   0.364176 1  18F00B80x       Rx   d 8 00 7D 11 F1 FF FF FF FF
   0.365754 1  301             Rx   d 8 1E 0A 90 00 00 15 77 70
   0.368485 1  18FEF1FBx       Rx   d 8 FF 00 00 FF FF FF FF FF
   0.368997 1  105             Rx   d 8 8E 08 FF FF FF FF FF FF
   0.371173 1  701             Rx   d 8 00 0B 00 02 A0 D9 08 00
   0.373434 1  18F6101Cx       Rx   d 8 A7 BF EF 08 15 97 F5 CF
   0.374031 1  18F6181Cx       Rx   d 8 A8 AA FD 8A 75 A3 F6 22
   0.374543 1  18F6191Cx       Rx   d 8 91 DC 2D 33 EF 0C CB 90
   0.375098 1  18F61A1Cx       Rx   d 8 43 55 5C 47 3B 72 A5 09
   0.375653 1  18F61B1Cx       Rx   d 8 E8 A3 E2 C0 7F 50 F1 83
   0.376122 1  301             Rx   d 8 1E 0A 91 00 00 15 76 8C
   0.376634 1  18F61C1Cx       Rx   d 8 6D 31 B4 C4 A5 E6 4F 42
   0.378468 1  105             Rx   d 8 8E 08 FF FF FF FF FF FF
   0.382223 1  18F00B80x       Rx   d 8 07 7F 00 F1 FF FF FF FF
   0.382820 1  18F00B80x       Rx   d 8 73 7F 01 F1 FF FF FF FF
   0.383375 1  18F00B80x       Rx   d 8 00 7D 10 F1 FF FF FF FF
   0.383972 1  18F00B80x       Rx   d 8 00 7D 11 F1 FF FF FF FF
   0.385679 1  301             Rx   d 8 1E 0A 92 00 00 15 76 C8
   0.388623 1  105             Rx   d 8 8E 08 FF FF FF FF FF FF
   0.393359 1  18F6101Cx       Rx   d 8 C5 F4 CA C0 55 76 49 FC
   0.393913 1  18F6181Cx       Rx   d 8 4E 40 1A BD 96 A7 9D 7C
   0.394468 1  18F6191Cx       Rx   d 8 5C 5A 2B 3F 6A D1 A5 A6
   0.394980 1  18F61A1Cx       Rx   d 8 42 72 B3 5A 97 56 9B 20
   0.395534 1  18F61B1Cx       Rx   d 8 5C FA FD C9 22 8F A9 2B
   0.396004 1  301             Rx   d 8 1D 0A 93 FF FF 15 06 C7
   0.396516 1  18F61C1Cx       Rx   d 8 F8 D2 7B DF 5A AC 44 48
   0.398436 1  105             Rx   d 8 8E 08 FF FF FF FF FF FF
   0.402446 1  18F00B80x       Rx   d 8 07 7F 00 F1 FF FF FF FF
   0.403001 1  18F00B80x       Rx   d 8 73 7F 01 F1 FF FF FF FF
   0.403598 1  18F00B80x       Rx   d 8 00 7D 10 F1 FF FF FF FF
   0.404153 1  18F00B80x       Rx   d 8 00 7D 11 F1 FF FF FF FF
   0.405347 1  18FEE61Cx       Rx   d 8 72 16 09 0A 16 23 00 00
   0.405817 1  301             Rx   d 8 1D 0A 94 00 00 15 76 73
   0.408462 1  105             Rx   d 8 8E 08 FF FF FF FF FF FF
   0.413368 1  18F6101Cx       Rx   d 8 B4 AE C2 DF D1 E1 7A 32
   0.413923 1  18F6181Cx       Rx   d 8 D3 AD 98 9D 38 12 A1 AE
   0.414478 1  18F6191Cx       Rx   d 8 F9 E7 6A 82 D0 C8 1F CF
   0.414990 1  18F61A1Cx       Rx   d 8 44 52 01 22 2A EA 59 A0
   0.415544 1  18F61B1Cx       Rx   d 8 57 D7 87 30 C5 2F 70 BC
   0.416014 1  301             Rx   d 8 1E 0A 95 01 00 15 26 7C
   0.416568 1  18F61C1Cx       Rx   d 8 F5 40 FD D9 C6 41 5F AC
   0.418531 1  18FEF1FBx       Rx   d 8 FF 00 00 FF FF FF FF FF
   0.419000 1  105             Rx   d 8 8E 08 FF FF FF FF FF FF
   0.421731 1  701             Rx   d 8 00 0B 00 02 A0 D9 08 00
   0.422627 1  18F00B80x       Rx   d 8 07 7F 00 F1 FF FF FF FF
   0.423181 1  18F00B80x       Rx   d 8 73 7F 01 F1 FF FF FF FF
   0.423779 1  18F00B80x       Rx   d 8 00 7D 10 F1 FF FF FF FF
   0.424376 1  18F00B80x       Rx   d 8 00 7D 11 F1 FF FF FF FF
   0.425528 1  301             Rx   d 8 1E 0A 96 00 00 15 77 F8
   0.428429 1  105             Rx   d 8 8E 08 FF FF FF FF FF FF
   0.433378 1  18F6101Cx       Rx   d 8 29 9A AF 5A 43 D2 0F D7
   0.433933 1  18F6181Cx       Rx   d 8 E1 1F 74 CA 7B 9F 67 EE
   0.434488 1  18F6191Cx       Rx   d 8 35 03 CA 6A C1 0C A8 B3
   0.435000 1  18F61A1Cx       Rx   d 8 A5 58 32 C0 28 8B D4 8B
   0.435469 1  301             Rx   d 8 1E 0A 97 00 00 15 76 04
   0.436024 1  18F61B1Cx       Rx   d 8 00 4F 7B 54 B3 B3 67 B6
   0.436578 1  18F61C1Cx       Rx   d 8 23 01 5D 22 7D A5 DD 71
   0.437133 1  CAC1C13x        Rx   d 8 A3 7D 10 FF FF FF FF FF
   0.438114 1  CAC1C80x        Rx   d 8 58 7D 10 FF FF FF FF FF
   0.438583 1  105             Rx   d 8 8E 08 FF FF FF FF FF FF
   0.442807 1  18F00B80x       Rx   d 8 07 7F 00 F1 FF FF FF FF
   0.443405 1  18F00B80x       Rx   d 8 73 7F 01 F1 FF FF FF FF
   0.443959 1  18F00B80x       Rx   d 8 00 7D 10 F1 FF FF FF FF
   0.444557 1  18F00B80x       Rx   d 8 00 7D 11 F1 FF FF FF FF
   0.445452 1  301             Rx   d 8 1E 0A 98 00 00 15 75 10
   0.448524 1  105             Rx   d 8 8E 08 FF FF FF FF FF FF
   0.453388 1  18FEF31Cx       Rx   d 8 95 4F 30 9A C0 A7 BF 84
   0.453943 1  18FEE81Cx       Rx   d 8 B6 0C 04 00 5E 65 03 5A
   0.454497 1  18F6101Cx       Rx   d 8 56 9F 07 63 1B 14 30 C1
   0.455052 1  18F6181Cx       Rx   d 8 12 D7 2E 8B 63 96 25 C9
   0.455521 1  301             Rx   d 8 1E 0A 99 00 00 15 74 EC
   0.456033 1  18F6191Cx       Rx   d 8 98 2A E2 C0 A5 1B 27 97
   0.456588 1  18F61A1Cx       Rx   d 8 6F 15 D3 E2 EC 4A 21 AA
   0.457100 1  18F61B1Cx       Rx   d 8 00 4F 7B 54 B3 B3 67 B6
   0.457655 1  18F61C1Cx       Rx   d 8 C1 0F D3 03 22 E4 19 63
   0.458252 1  CAD801Cx        Rx   d 8 80 7D FC FF FF FF FF FF
   0.458721 1  105             Rx   d 8 8E 08 FF FF FF FF FF FF
   0.459319 1  CAD131Cx        Rx   d 8 80 7D FC FF FF FF FF FF
   0.459916 1  CFD431Cx        Rx   d 8 FF FF 88 13 FF FF FF FD
   0.463030 1  18F00B80x       Rx   d 8 07 7F 00 F1 FF FF FF FF
   0.463585 1  18F00B80x       Rx   d 8 73 7F 01 F1 FF FF FF FF
   0.464182 1  18F00B80x       Rx   d 8 00 7D 10 F1 FF FF FF FF
   0.464780 1  18F00B80x       Rx   d 8 00 7D 11 F1 FF FF FF FF
   0.465377 1  301             Rx   d 8 1E 0A 9A 00 00 15 74 A8
   0.468492 1  18FEF1FBx       Rx   d 8 FF 00 00 FF FF FF FF FF
   0.469004 1  105             Rx   d 8 8E 08 FF FF FF FF FF FF
   0.472331 1  701             Rx   d 8 00 0B 00 02 A0 D9 08 00
   0.473398 1  18F6101Cx       Rx   d 8 47 A1 7A F5 AA 4A B0 AF
   0.473953 1  18F6181Cx       Rx   d 8 66 0F 00 81 26 F4 28 3D
   0.474465 1  18F6191Cx       Rx   d 8 1B B7 57 57 01 F6 E9 E6
   0.475019 1  18F61A1Cx       Rx   d 8 32 B8 0C 73 7B 4F E6 9A
   0.475489 1  301             Rx   d 8 1E 0A 9B 00 00 15 75 54
   0.476043 1  18F61B1Cx       Rx   d 8 5C FA FD C9 22 8F A9 2B
   0.476555 1  18F61C1Cx       Rx   d 8 60 72 C7 D8 F2 82 42 B3
   0.478475 1  105             Rx   d 8 8E 08 FF FF FF FF FF FF
   0.483211 1  18F00B80x       Rx   d 8 07 7F 00 F1 FF FF FF FF
   0.483808 1  18F00B80x       Rx   d 8 73 7F 01 F1 FF FF FF FF
   0.484363 1  18F00B80x       Rx   d 8 00 7D 10 F1 FF FF FF FF
   0.484960 1  18F00B80x       Rx   d 8 00 7D 11 F1 FF FF FF FF
   0.485430 1  301             Rx   d 8 1E 0A 9C 00 00 15 74 20
   0.489056 1  105             Rx   d 8 8E 08 FF FF FF FF FF FF
   0.493365 1  18F6101Cx       Rx   d 8 01 CD 97 B9 10 9A 6C 52
   0.493920 1  18F6181Cx       Rx   d 8 9F 39 85 88 C2 61 F3 02
   0.494432 1  18F6191Cx       Rx   d 8 D4 C9 91 66 95 A6 73 37
   0.494987 1  18F61A1Cx       Rx   d 8 8D 2D 2D 8D C4 2E 53 DF
   0.495456 1  301             Rx   d 8 1D 0A 9D FF FF 15 04 2F
   0.495968 1  18F61B1Cx       Rx   d 8 DA 50 B2 82 05 8C FD 77
   0.496522 1  18F61C1Cx       Rx   d 8 98 C7 EE CF 4A FD 3A F8
   0.498698 1  105             Rx   d 8 8E 08 FF FF FF FF FF FF
   0.503434 1  18F00B80x       Rx   d 8 07 7F 00 F1 FF FF FF FF
   0.503989 1  18F00B80x       Rx   d 8 73 7F 01 F1 FF FF FF FF
   0.504586 1  18F00B80x       Rx   d 8 00 7D 10 F1 FF FF FF FF
   0.505183 1  18F00B80x       Rx   d 8 00 7D 11 F1 FF FF FF FF
   0.505610 1  301             Rx   d 8 1E 0A 9E 01 00 15 24 58
   0.508469 1  105             Rx   d 8 8E 08 FF FF FF FF FF FF
   0.513332 1  18F6101Cx       Rx   d 8 6A D6 0E C3 C3 AA 29 5A
   0.513887 1  18F6181Cx       Rx   d 8 61 22 38 E5 B4 A7 D6 50
   0.514399 1  18F6191Cx       Rx   d 8 B6 BD 4D BB 8B 47 37 55
   0.514954 1  18F61A1Cx       Rx   d 8 10 65 27 E7 86 65 78 9D
   0.515423 1  301             Rx   d 8 1D 0A 9F FF FF 15 05 97
   0.515978 1  18F61B1Cx       Rx   d 8 6E 5B F1 EC 84 89 20 10
   0.516532 1  18F61C1Cx       Rx   d 8 B6 C8 E9 28 C2 00 C3 DC
   0.517087 1  CAC1C13x        Rx   d 8 A3 7D 10 FF FF FF FF FF
   0.518836 1  18FEF1FBx       Rx   d 8 FF 00 00 FF FF FF FF FF
   0.519348 1  105             Rx   d 8 8E 08 FF FF FF FF FF FF
   0.519903 1  CAC1C80x        Rx   d 8 52 7D 10 FF FF FF FF FF
   0.523103 1  701             Rx   d 8 00 0B 00 02 A0 D9 08 00
   0.523700 1  18F00B80x       Rx   d 8 07 7F 00 F1 FF FF FF FF
   0.524255 1  18F00B80x       Rx   d 8 73 7F 01 F1 FF FF FF FF
   0.524852 1  18F00B80x       Rx   d 8 A6 7C 10 F1 FF FF FF FF
   0.525321 1  301             Rx   d 8 1E 0A A0 01 00 15 29 B0
   0.525876 1  18F00B80x       Rx   d 8 B5 7C 11 F1 FF FF FF FF
   0.528436 1  105             Rx   d 8 8E 08 FF FF FF FF FF FF
   0.535134 1  301             Rx   d 8 1E 0A A1 00 00 15 79 8C
   0.536969 1  18FF0113x       Rx   d 7 AA 01 00 00 00 05 00
   0.538462 1  105             Rx   d 8 8E 08 FF FF FF FF FF FF
   0.542345 1  18F6101Cx       Rx   d 8 57 F7 91 AE 62 85 B7 31
   0.542942 1  18F6181Cx       Rx   d 8 91 AE 4C 21 BB 04 CD FE
   0.543497 1  18F6191Cx       Rx   d 8 E4 7D 65 AF 8E C0 05 BE
   0.544051 1  18F00B80x       Rx   d 8 07 7F 00 F1 FF FF FF FF
   0.544649 1  18F00B80x       Rx   d 8 73 7F 01 F1 FF FF FF FF
   0.545118 1  301             Rx   d 8 1E 0A A2 00 00 15 79 C8
   0.545673 1  18F00B80x       Rx   d 8 A6 7C 10 F1 FF FF FF FF
   0.546270 1  18F00B80x       Rx   d 8 B5 7C 11 F1 FF FF FF FF
   0.546782 1  18F61A1Cx       Rx   d 8 FF 7E D4 C8 F2 27 9A 8A
   0.547337 1  18F61B1Cx       Rx   d 8 7E 3A 94 D6 75 86 1F 22
   0.547891 1  18F61C1Cx       Rx   d 8 72 83 B8 3F B0 28 61 24
   0.548488 1  105             Rx   d 8 8E 08 FF FF FF FF FF FF
   0.554675 1  18FEF31Cx       Rx   d 8 95 4F 30 9A C0 A7 BF 84
   0.555102 1  301             Rx   d 8 1D 0A A3 FF FF 15 09 C7
   0.555656 1  18FEE81Cx       Rx   d 8 B6 0C 04 00 5E 65 03 5A
   0.556211 1  18F6101Cx       Rx   d 8 4B 6C 47 F7 79 C6 FD 1B
   0.556765 1  18F6181Cx       Rx   d 8 0E A8 53 DB 08 99 97 DA
   0.557277 1  18F6191Cx       Rx   d 8 42 78 B2 E5 18 7A A4 72
   0.557832 1  18F61A1Cx       Rx   d 8 CB D5 2E 4F 98 E3 8F DB
   0.558344 1  18F61B1Cx       Rx   d 8 B7 64 4C A4 B3 3E 0E 3A
   0.558856 1  105             Rx   d 8 8E 08 FF FF FF FF FF FF
   0.559411 1  18F61C1Cx       Rx   d 8 01 03 62 1D FF 0B 32 4F
   0.560008 1  CAD801Cx        Rx   d 8 80 7D FC FF FF FF FF FF
   0.560605 1  CFD431Cx        Rx   d 8 FF FF 88 13 FF FF FF FD
   0.561203 1  CAD131Cx        Rx   d 8 80 7D FC FF FF FF FF FF
   0.564403 1  18F00B80x       Rx   d 8 07 7F 00 F1 FF FF FF FF
   0.564957 1  18F00B80x       Rx   d 8 73 7F 01 F1 FF FF FF FF
   0.565426 1  301             Rx   d 8 1E 0A A4 01 00 15 28 80
   0.566024 1  18F00B80x       Rx   d 8 A6 7C 10 F1 FF FF FF FF
   0.566578 1  18F00B80x       Rx   d 8 B5 7C 11 F1 FF FF FF FF
   0.568498 1  18FEF1FBx       Rx   d 8 FF 00 00 FF FF FF FF FF
   0.569010 1  105             Rx   d 8 8E 08 FF FF FF FF FF FF
   0.573362 1  18F6101Cx       Rx   d 8 7B EE E5 BC 35 63 A0 05
   0.573831 1  701             Rx   d 8 00 0B 00 02 A0 D9 08 00
   0.574386 1  18F6181Cx       Rx   d 8 B7 1B 9A 35 9C 2A 99 3A
   0.574941 1  18F6191Cx       Rx   d 8 35 C9 FF 2C 5A 21 D2 8D
   0.575410 1  301             Rx   d 8 1E 0A A5 00 00 15 78 BC
   0.575922 1  18F61A1Cx       Rx   d 8 18 EC 9B F3 44 F8 16 0E
   0.576477 1  18F61B1Cx       Rx   d 8 E8 A3 E2 C0 7F 50 F1 83
   0.577031 1  18F61C1Cx       Rx   d 8 1C AF 1F B1 3A E2 34 E2
   0.578439 1  105             Rx   d 8 8E 08 FF FF FF FF FF FF
   0.584583 1  18F00B80x       Rx   d 8 07 7F 00 F1 FF FF FF FF
   0.585052 1  301             Rx   d 8 1E 0A A6 00 00 15 78 F8
   0.585607 1  18F00B80x       Rx   d 8 73 7F 01 F1 FF FF FF FF
   0.586204 1  18F00B80x       Rx   d 8 A6 7C 10 F1 FF FF FF FF
   0.586759 1  18F00B80x       Rx   d 8 B5 7C 11 F1 FF FF FF FF
   0.588551 1  105             Rx   d 8 8E 08 FF FF FF FF FF FF
   0.593329 1  18F6101Cx       Rx   d 8 1E D4 0D 0D CB E3 0B AA
   0.593884 1  18F6181Cx       Rx   d 8 D5 C1 4E F1 CC D6 27 4C
   0.594396 1  18F6191Cx       Rx   d 8 F7 89 92 63 D1 D4 9D 71
   0.594951 1  18F61A1Cx       Rx   d 8 C5 84 D9 4E 67 1E 52 55
   0.595420 1  301             Rx   d 8 1E 0A A7 00 00 15 79 04
   0.595932 1  18F61B1Cx       Rx   d 8 7E 3A 94 D6 75 86 1F 22
   0.596529 1  CAC1C13x        Rx   d 8 A3 7D 10 FF FF FF FF FF
   0.597041 1  18F61C1Cx       Rx   d 8 48 86 A3 36 DC 38 D5 35
   0.597639 1  CAC1C80x        Rx   d 8 52 7D 10 FF FF FF FF FF
   0.598193 1  701             Rx   d 8 00 0A 00 02 86 72 00 00
   0.598705 1  701             Rx   d 8 01 0A 00 02 19 00 00 00
   0.599174 1  105             Rx   d 8 8E 08 FF FF FF FF FF FF
   0.604764 1  18F00B80x       Rx   d 8 07 7F 00 F1 FF FF FF FF
   0.605233 1  301             Rx   d 8 1E 0A A8 00 00 15 7A 10
   0.605788 1  18F00B80x       Rx   d 8 73 7F 01 F1 FF FF FF FF
   0.606385 1  18F00B80x       Rx   d 8 A6 7C 10 F1 FF FF FF FF
   0.606940 1  18F00B80x       Rx   d 8 B5 7C 11 F1 FF FF FF FF
   0.608433 1  105             Rx   d 8 8E 08 FF FF FF FF FF FF
   0.613638 1  18F6101Cx       Rx   d 8 43 53 45 CF 8B CB BB 0D
   0.614150 1  18F6181Cx       Rx   d 8 C3 BC 68 E4 D1 52 62 89
   0.614705 1  18F6191Cx       Rx   d 8 0C BC D3 11 A8 28 54 C3
   0.615174 1  301             Rx   d 8 1E 0A A9 00 00 15 7B EC
   0.615728 1  18F61A1Cx       Rx   d 8 9A 6B 08 8F 40 5E 00 C0
   0.616240 1  18F61B1Cx       Rx   d 8 A5 AA 71 C7 EF E9 78 38
   0.616795 1  18F61C1Cx       Rx   d 8 30 B0 FF E0 32 0C F0 CC
   0.618502 1  18FEF1FBx       Rx   d 8 FF 00 00 FF FF FF FF FF
   0.619014 1  105             Rx   d 8 8E 08 FF FF FF FF FF FF
   0.624603 1  701             Rx   d 8 00 0B 00 02 A0 D9 08 00
   0.625072 1  301             Rx   d 8 1E 0A AA 00 00 15 7B A8
   0.625669 1  18F00B80x       Rx   d 8 07 7F 00 F1 FF FF FF FF
   0.626224 1  18F00B80x       Rx   d 8 73 7F 01 F1 FF FF FF FF
   0.626821 1  18F00B80x       Rx   d 8 00 7D 10 F1 FF FF FF FF
   0.627376 1  18F00B80x       Rx   d 8 00 7D 11 F1 FF FF FF FF
   0.628443 1  105             Rx   d 8 8E 08 FF FF FF FF FF FF
   0.633392 1  18F6101Cx       Rx   d 8 EB 1A 94 1C 50 0D 0A DD
   0.633946 1  18F6181Cx       Rx   d 8 B5 40 AB 67 29 02 AC CB
   0.634458 1  18F6191Cx       Rx   d 8 D7 E2 E6 BF C5 26 5D 2F
   0.634928 1  301             Rx   d 8 1D 0A AB FF FF 15 0B A7
   0.635482 1  18F61A1Cx       Rx   d 8 16 61 41 8F 45 5B 23 A0
   0.636037 1  18F61B1Cx       Rx   d 8 F0 A5 25 C3 2C D6 7F AB
   0.636549 1  18F61C1Cx       Rx   d 8 36 4D B4 69 FE 5D E4 58
   0.638469 1  105             Rx   d 8 8E 08 FF FF FF FF FF FF
   0.644741 1  301             Rx   d 8 1E 0A AC 01 00 15 2A E0
   0.645295 1  18F00B80x       Rx   d 8 07 7F 00 F1 FF FF FF FF
   0.645893 1  18F00B80x       Rx   d 8 73 7F 01 F1 FF FF FF FF
   0.646447 1  18F00B80x       Rx   d 8 00 7D 10 F1 FF FF FF FF
   0.647045 1  18F00B80x       Rx   d 8 00 7D 11 F1 FF FF FF FF
   0.648453 1  105             Rx   d 8 8E 08 FF FF FF FF FF FF
   0.653572 1  18FEF31Cx       Rx   d 8 95 4F 30 9A C0 A7 BF 84
   0.654127 1  18FEE81Cx       Rx   d 8 B6 0C 04 00 5E 65 03 5A
   0.654682 1  18FEE61Cx       Rx   d 8 73 16 09 0A 16 23 00 00
   0.655151 1  301             Rx   d 8 1E 0A AD 00 00 15 7A DC
   0.655706 1  18F6101Cx       Rx   d 8 7D 2E 4D 29 6F E4 C9 04
   0.656260 1  18F6181Cx       Rx   d 8 22 F3 FA FF 2C E8 87 88
   0.656772 1  18F6191Cx       Rx   d 8 DC EA 8D 61 74 97 09 81
   0.657327 1  18F61A1Cx       Rx   d 8 BE 9C C6 18 BA 2E 04 2D
   0.657839 1  18F61B1Cx       Rx   d 8 7E 3A 94 D6 75 86 1F 22
   0.658393 1  18F61C1Cx       Rx   d 8 19 FA 62 BF 26 3C 98 2F
   0.658991 1  CAD801Cx        Rx   d 8 80 7D FC FF FF FF FF FF
   0.659545 1  CFD431Cx        Rx   d 8 FF FF 88 13 FF FF FF FD
   0.660057 1  105             Rx   d 8 8E 08 FF FF FF FF FF FF
   0.664665 1  301             Rx   d 8 1E 0A AE 00 00 15 7A 98
   0.665519 1  18F00B80x       Rx   d 8 07 7F 00 F1 FF FF FF FF
   0.666073 1  18F00B80x       Rx   d 8 73 7F 01 F1 FF FF FF FF
   0.666671 1  18F00B80x       Rx   d 8 00 7D 10 F1 FF FF FF FF
   0.667268 1  18F00B80x       Rx   d 8 00 7D 11 F1 FF FF FF FF
   0.667822 1  CAD131Cx        Rx   d 8 80 7D FC FF FF FF FF FF
   0.668846 1  18FEF1FBx       Rx   d 8 FF 00 00 FF FF FF FF FF
   0.669358 1  105             Rx   d 8 8E 08 FF FF FF FF FF FF
   0.673369 1  18F6101Cx       Rx   d 8 6E 4E E8 22 39 1B FA B9
   0.673924 1  18F6181Cx       Rx   d 8 1D 02 2F 1B 07 F1 D8 3D
   0.674478 1  18F6191Cx       Rx   d 8 72 31 56 8C 0E A8 40 A1
   0.674948 1  301             Rx   d 8 1E 0A AF 00 00 15 7B 64
   0.675459 1  18F61A1Cx       Rx   d 8 AD BE A3 BC 64 7B 6D 96
   0.676014 1  18F61B1Cx       Rx   d 8 E8 A3 E2 C0 7F 50 F1 83
   0.676569 1  CAC1C13x        Rx   d 8 A3 7D 10 FF FF FF FF FF
   0.677123 1  18F61C1Cx       Rx   d 8 FF 52 0D B7 E1 2E EE C4
   0.677593 1  701             Rx   d 8 00 0B 00 02 A0 D9 08 00
   0.678574 1  105             Rx   d 8 8E 08 FF FF FF FF FF FF
   0.679385 1  CAC1C80x        Rx   d 8 58 7D 10 FF FF FF FF FF
   0.684590 1  301             Rx   d 8 1E 0A B0 00 00 15 7C B0
   0.685699 1  18F00B80x       Rx   d 8 07 7F 00 F1 FF FF FF FF
   0.686296 1  18F00B80x       Rx   d 8 73 7F 01 F1 FF FF FF FF
   0.686851 1  18F00B80x       Rx   d 8 00 7D 10 F1 FF FF FF FF
   0.687448 1  18F00B80x       Rx   d 8 00 7D 11 F1 FF FF FF FF
   0.689240 1  105             Rx   d 8 8E 08 FF FF FF FF FF FF
   0.694531 1  301             Rx   d 8 1E 0A B1 00 00 15 7D 4C
   0.695469 1  18F6101Cx       Rx   d 8 90 46 64 9D 52 65 F7 A5
   0.696067 1  18F6181Cx       Rx   d 8 5A 75 19 D0 92 E4 62 6A
   0.696621 1  18F6191Cx       Rx   d 8 31 C0 99 25 D4 1F FC 0D
   0.697133 1  18F61A1Cx       Rx   d 8 B2 4F 49 F7 38 0A C3 25
   0.697688 1  18F61B1Cx       Rx   d 8 E8 A3 E2 C0 7F 50 F1 83
   0.698243 1  18F61C1Cx       Rx   d 8 CF D3 B5 DD 86 01 92 66
   0.698755 1  105             Rx   d 8 8E 08 FF FF FF FF FF FF
   0.704514 1  301             Rx   d 8 1D 0A B2 FF FF 15 0C FB
   0.705922 1  18F00B80x       Rx   d 8 07 7F 00 F1 FF FF FF FF
   0.706477 1  18F00B80x       Rx   d 8 73 7F 01 F1 FF FF FF FF
   0.707074 1  18F00B80x       Rx   d 8 00 7D 10 F1 FF FF FF FF
   0.707672 1  18F00B80x       Rx   d 8 00 7D 11 F1 FF FF FF FF
   0.708440 1  105             Rx   d 8 8E 08 FF FF FF FF FF FF
   0.713346 1  18F6101Cx       Rx   d 8 A5 B0 9B 78 A8 53 03 A8
   0.713858 1  18F6181Cx       Rx   d 8 7D 40 37 74 4C 28 A2 56
   0.714413 1  18F6191Cx       Rx   d 8 20 93 D9 80 6A 0C 6E C8
   0.714882 1  301             Rx   d 8 1E 0A B3 01 00 15 2D 34
   0.715437 1  18F61A1Cx       Rx   d 8 2B B0 6F 9D A9 2B EE 22
   0.715991 1  18F61B1Cx       Rx   d 8 7E 3A 94 D6 75 86 1F 22
   0.716546 1  18F61C1Cx       Rx   d 8 0E A5 0B FE 80 F5 3F 0D
   0.718508 1  18FEF1FBx       Rx   d 8 FF 00 00 FF FF FF FF FF
   0.718978 1  105             Rx   d 8 8E 08 FF FF FF FF FF FF
   0.724439 1  301             Rx   d 8 1E 0A B4 00 00 15 7D 80
   0.725890 1  701             Rx   d 8 00 0B 00 02 A0 D9 08 00
   0.726487 1  18F00B80x       Rx   d 8 07 7F 00 F1 FF FF FF FF
   0.727041 1  18F00B80x       Rx   d 8 73 7F 01 F1 FF FF FF FF
   0.727639 1  18F00B80x       Rx   d 8 00 7D 10 F1 FF FF FF FF
   0.728236 1  18F00B80x       Rx   d 8 00 7D 11 F1 FF FF FF FF
   0.728705 1  105             Rx   d 8 8E 08 FF FF FF FF FF FF
   0.734380 1  301             Rx   d 8 1E 0A B5 00 00 15 7C 7C
   0.738476 1  105             Rx   d 8 8E 08 FF FF FF FF FF FF
   0.744363 1  301             Rx   d 8 1E 0A B6 00 00 15 7C 38
   0.746369 1  18F00B80x       Rx   d 8 07 7F 00 F1 FF FF FF FF
   0.746923 1  18F00B80x       Rx   d 8 73 7F 01 F1 FF FF FF FF
   0.747521 1  18F00B80x       Rx   d 8 00 7D 10 F1 FF FF FF FF
   0.748118 1  18F00B80x       Rx   d 8 00 7D 11 F1 FF FF FF FF
   0.748587 1  105             Rx   d 8 8E 08 FF FF FF FF FF FF
   0.749142 1  18F6101Cx       Rx   d 8 BB 38 7C 4F 73 06 3B 46
   0.749697 1  18F6181Cx       Rx   d 8 95 92 3B BF B4 B4 DF 62
   0.750209 1  18F6191Cx       Rx   d 8 C8 6E 9C AC 61 4E 5F B2
   0.750763 1  18F61A1Cx       Rx   d 8 63 EA C7 DB 20 EE 08 24
   0.751318 1  18F61B1Cx       Rx   d 8 F0 A5 25 C3 2C D6 7F AB
   0.751873 1  18F61C1Cx       Rx   d 8 E3 5F 5C 83 D7 84 00 91
   0.753536 1  18FEF31Cx       Rx   d 8 95 4F 30 9A C0 A7 BF 84
   0.754091 1  18FEE81Cx       Rx   d 8 B6 0C 04 00 5E 65 03 5A
   0.754560 1  301             Rx   d 8 1D 0A B7 FF FF 15 0C 37
   0.755115 1  18F6101Cx       Rx   d 8 BB 38 7C 4F 73 06 3B 46
   0.755627 1  18F6181Cx       Rx   d 8 95 92 3B BF B4 B4 DF 62
   0.756224 1  CAC1C13x        Rx   d 8 A3 7D 10 FF FF FF FF FF
   0.756736 1  18F6191Cx       Rx   d 8 C8 6E 9C AC 61 4E 5F B2
   0.757334 1  CAC1C80x        Rx   d 8 58 7D 10 FF FF FF FF FF
   0.757888 1  18F61A1Cx       Rx   d 8 63 EA C7 DB 20 EE 08 24
   0.758400 1  18F61B1Cx       Rx   d 8 F0 A5 25 C3 2C D6 7F AB
   0.758912 1  105             Rx   d 8 8E 08 FF FF FF FF FF FF
   0.759467 1  18F61C1Cx       Rx   d 8 E3 5F 5C 83 D7 84 00 91
   0.760022 1  CAD801Cx        Rx   d 8 80 7D FC FF FF FF FF FF
   0.760619 1  CFD431Cx        Rx   d 8 FF FF 88 13 FF FF FF FD
   0.761216 1  CAD131Cx        Rx   d 8 80 7D FC FF FF FF FF FF
   0.764288 1  301             Rx   d 8 1D 0A B8 00 00 15 7E E3
   0.766549 1  18F00B80x       Rx   d 8 07 7F 00 F1 FF FF FF FF
   0.767147 1  18F00B80x       Rx   d 8 73 7F 01 F1 FF FF FF FF
   0.767701 1  18F00B80x       Rx   d 8 00 7D 10 F1 FF FF FF FF
   0.768299 1  18F00B80x       Rx   d 8 00 7D 11 F1 FF FF FF FF
   0.768896 1  18FEF1FBx       Rx   d 8 FF 00 00 FF FF FF FF FF
   0.769365 1  105             Rx   d 8 8E 08 FF FF FF FF FF FF
   0.773418 1  18F6101Cx       Rx   d 8 8C F2 F6 EE D9 CF 6D 44
   0.774016 1  18F6181Cx       Rx   d 8 38 6B 91 B7 1B 52 FD B0
   0.774485 1  301             Rx   d 8 1D 0A B9 00 00 15 7F 1F
   0.775040 1  18F6191Cx       Rx   d 8 A0 07 C9 65 A6 9A 3A 7D
   0.775552 1  18F61A1Cx       Rx   d 8 4C 29 CC 22 4E DD 8D 9B
   0.776106 1  18F61B1Cx       Rx   d 8 AC 0B 30 B3 94 60 30 98
   0.776661 1  18FF0113x       Rx   d 7 AA 01 00 00 00 05 00
   0.777173 1  18F61C1Cx       Rx   d 8 BC 7F 24 61 B1 92 4C 68
   0.777685 1  701             Rx   d 8 00 0B 00 02 A0 D9 08 00
   0.778453 1  105             Rx   d 8 8E 08 FF FF FF FF FF FF
   0.784213 1  301             Rx   d 8 1D 0A BA 00 00 15 7F 5B
   0.786730 1  18F00B80x       Rx   d 8 07 7F 00 F1 FF FF FF FF
   0.787327 1  18F00B80x       Rx   d 8 73 7F 01 F1 FF FF FF FF
   0.787882 1  18F00B80x       Rx   d 8 00 7D 10 F1 FF FF FF FF
   0.788479 1  18F00B80x       Rx   d 8 00 7D 11 F1 FF FF FF FF
   0.788991 1  105             Rx   d 8 8E 08 FF FF FF FF FF FF
   0.793386 1  18F6101Cx       Rx   d 8 FF 67 29 05 0D 5D 57 49
   0.793940 1  18F6181Cx       Rx   d 8 C7 BC EC 10 F9 67 3D FF
   0.794410 1  301             Rx   d 8 1E 0A BB 01 00 15 2F 54
   0.794921 1  18F6191Cx       Rx   d 8 26 DC 1C E0 6E 65 5D 2A
   0.795476 1  18F61A1Cx       Rx   d 8 8F CC 1E 92 59 84 53 EB
   0.795988 1  18F61B1Cx       Rx   d 8 C5 18 B9 0E F5 0E 39 88
   0.796543 1  18F61C1Cx       Rx   d 8 B7 89 FB EA F2 CF D1 57
   0.798463 1  105             Rx   d 8 8E 08 FF FF FF FF FF FF
   0.804180 1  301             Rx   d 8 1E 0A BC 00 00 15 7F E0
   0.806953 1  18F00B80x       Rx   d 8 07 7F 00 F1 FF FF FF FF
   0.807508 1  18F00B80x       Rx   d 8 73 7F 01 F1 FF FF FF FF
   0.808105 1  18F00B80x       Rx   d 8 00 7D 10 F1 FF FF FF FF
   0.808702 1  18F00B80x       Rx   d 8 00 7D 11 F1 FF FF FF FF
   0.809172 1  105             Rx   d 8 8E 08 FF FF FF FF FF FF
   0.813395 1  18F6101Cx       Rx   d 8 94 D1 E2 99 C0 E5 FC 9D
   0.813950 1  18F6181Cx       Rx   d 8 D2 A4 7C 5E 91 AF 27 F1
   0.814419 1  301             Rx   d 8 1E 0A BD 00 00 15 7E 1C
   0.814974 1  18F6191Cx       Rx   d 8 43 FF A9 29 54 17 D3 85
   0.815529 1  18F61A1Cx       Rx   d 8 8E E6 23 A0 DA A6 59 DB
   0.816041 1  18F61B1Cx       Rx   d 8 E8 A3 E2 C0 7F 50 F1 83
   0.816595 1  18F61C1Cx       Rx   d 8 20 53 71 77 50 B1 A6 F2
   0.818601 1  18FEF1FBx       Rx   d 8 FF 00 00 FF FF FF FF FF
   0.819113 1  105             Rx   d 8 8E 08 FF FF FF FF FF FF
   0.824062 1  301             Rx   d 8 1D 0A BE FF FF 15 0F AB
   0.827091 1  701             Rx   d 8 00 0B 00 02 A0 D9 08 00
   0.827688 1  18F00B80x       Rx   d 8 07 7F 00 F1 FF FF FF FF
   0.828243 1  18F00B80x       Rx   d 8 73 7F 01 F1 FF FF FF FF
   0.828840 1  18F00B80x       Rx   d 8 00 7D 10 F1 FF FF FF FF
   0.829437 1  18F00B80x       Rx   d 8 00 7D 11 F1 FF FF FF FF
   0.829907 1  105             Rx   d 8 8E 08 FF FF FF FF FF FF
   0.833363 1  18F6101Cx       Rx   d 8 17 F6 49 CF C8 29 1C 83
   0.833917 1  18F6181Cx       Rx   d 8 A8 2C CA 69 0C 8E 0D 42
   0.834387 1  301             Rx   d 8 1D 0A BF 00 00 15 7F 97
   0.834899 1  18F6191Cx       Rx   d 8 0D A2 09 01 78 B2 A4 6A
   0.835453 1  18F61A1Cx       Rx   d 8 9B 0A 31 A0 82 49 10 18
   0.836008 1  CAC1C13x        Rx   d 8 A3 7D 10 FF FF FF FF FF
   0.836563 1  18F61B1Cx       Rx   d 8 C4 2B E8 B8 62 03 FB A1
   0.837160 1  CAC1C80x        Rx   d 8 58 7D 10 FF FF FF FF FF
   0.837672 1  18F61C1Cx       Rx   d 8 39 F9 5D E0 33 99 38 75
   0.838440 1  105             Rx   d 8 8E 08 FF FF FF FF FF FF
   0.844029 1  301             Rx   d 8 1D 0A C0 00 00 15 66 43
   0.847741 1  18F00B80x       Rx   d 8 07 7F 00 F1 FF FF FF FF
   0.848295 1  18F00B80x       Rx   d 8 73 7F 01 F1 FF FF FF FF
   0.848893 1  18F00B80x       Rx   d 8 00 7D 10 F1 FF FF FF FF
   0.849490 1  18F00B80x       Rx   d 8 00 7D 11 F1 FF FF FF FF
   0.849959 1  105             Rx   d 8 8E 08 FF FF FF FF FF FF
   0.850471 1  701             Rx   d 8 00 0A 00 02 16 72 00 00
   0.850941 1  701             Rx   d 8 01 0A 00 02 1F 00 00 00
   0.853415 1  18FEF31Cx       Rx   d 8 95 4F 30 9A C0 A7 BF 84
   0.854055 1  18FEE81Cx       Rx   d 8 B6 0C 04 00 5E 65 03 5A
   0.854525 1  301             Rx   d 8 1E 0A C1 01 00 15 36 4C
   0.855036 1  18F6101Cx       Rx   d 8 D9 13 9B 8B B7 90 D2 4B
   0.855591 1  18F6181Cx       Rx   d 8 8A FF E7 0D 62 73 5A 57
   0.856146 1  18F6191Cx       Rx   d 8 17 7C 3C 44 C8 78 73 A6
   0.856700 1  18F61A1Cx       Rx   d 8 AC 08 D4 1D 1E 20 5C 9F
   0.857212 1  18F61B1Cx       Rx   d 8 8B 9B 5F 49 9E 60 85 93
   0.857767 1  18F61C1Cx       Rx   d 8 81 C4 10 38 14 72 24 BE
   0.858364 1  CAD801Cx        Rx   d 8 80 7D FC FF FF FF FF FF
   0.858834 1  105             Rx   d 8 8E 08 FF FF FF FF FF FF
   0.859431 1  CAD131Cx        Rx   d 8 80 7D FC FF FF FF FF FF
   0.859986 1  CFD431Cx        Rx   d 8 FF FF 88 13 FF FF FF FD
   0.863953 1  301             Rx   d 8 1D 0A C2 FF FF 15 16 3B
   0.867921 1  18F00B80x       Rx   d 8 07 7F 00 F1 FF FF FF FF
   0.868519 1  18F00B80x       Rx   d 8 73 7F 01 F1 FF FF FF FF
   0.869073 1  18F00B80x       Rx   d 8 00 7D 10 F1 FF FF FF FF
   0.869671 1  18F00B80x       Rx   d 8 00 7D 11 F1 FF FF FF FF
   0.870268 1  18FEF1FBx       Rx   d 8 FF 00 00 FF FF FF FF FF
   0.870737 1  105             Rx   d 8 8E 08 FF FF FF FF FF FF
   0.873340 1  18F6101Cx       Rx   d 8 1D B6 79 61 75 9D CB 04
   0.873852 1  18F6181Cx       Rx   d 8 50 42 C0 88 75 C5 95 DF
   0.874321 1  301             Rx   d 8 1D 0A C3 00 00 15 66 07
   0.874876 1  18F6191Cx       Rx   d 8 ED E2 DA C8 A1 E9 6C 7C
   0.875430 1  18F61A1Cx       Rx   d 8 7E B1 0B 67 94 7B EB 24
   0.875942 1  18F61B1Cx       Rx   d 8 DC 54 74 4F AD D1 5C F5
   0.876497 1  18F61C1Cx       Rx   d 8 C4 7C AE 4D 6E 2C 7C CD
   0.877777 1  701             Rx   d 8 00 0B 00 02 A0 D9 08 00
   0.878460 1  105             Rx   d 8 8E 08 FF FF FF FF FF FF
   0.883878 1  301             Rx   d 8 1E 0A C4 01 00 15 36 80
   0.888614 1  18F00B80x       Rx   d 8 07 7F 00 F1 FF FF FF FF
   0.889211 1  18F00B80x       Rx   d 8 73 7F 01 F1 FF FF FF FF
   0.889766 1  18F00B80x       Rx   d 8 00 7D 10 F1 FF FF FF FF
   0.890363 1  18F00B80x       Rx   d 8 00 7D 11 F1 FF FF FF FF
   0.890875 1  105             Rx   d 8 8E 08 FF FF FF FF FF FF
   0.893350 1  18F6101Cx       Rx   d 8 09 FB 59 EA BC 35 2A D4
   0.893904 1  18F6181Cx       Rx   d 8 3D 3E BB 17 F4 89 1A C6
   0.894374 1  301             Rx   d 8 1D 0A C5 FF FF 15 17 4F
   0.894886 1  18F6191Cx       Rx   d 8 43 EF 70 11 AD BE A1 48
   0.895440 1  18F61A1Cx       Rx   d 8 8A BD 6C E7 2A A9 14 F7
   0.895995 1  18F61B1Cx       Rx   d 8 20 73 50 84 6C 60 55 24
   0.896507 1  18F61C1Cx       Rx   d 8 36 49 C7 42 86 E3 C8 0C
   0.898427 1  105             Rx   d 8 8E 08 FF FF FF FF FF FF
   0.903803 1  301             Rx   d 8 1D 0A C6 00 00 15 66 CB
   0.906704 1  18FEE61Cx       Rx   d 8 74 16 09 0A 16 23 00 00
   0.908453 1  105             Rx   d 8 8E 08 FF FF FF FF FF FF
   0.909050 1  18F00B80x       Rx   d 8 07 7F 00 F1 FF FF FF FF
   0.909648 1  18F00B80x       Rx   d 8 73 7F 01 F1 FF FF FF FF
   0.910202 1  18F00B80x       Rx   d 8 00 7D 10 F1 FF FF FF FF
   0.910800 1  18F00B80x       Rx   d 8 00 7D 11 F1 FF FF FF FF
   0.913317 1  18F6101Cx       Rx   d 8 F2 7F F7 7A EC C2 F6 20
   0.913786 1  301             Rx   d 8 1E 0A C7 01 00 15 36 C4
   0.914341 1  18F6181Cx       Rx   d 8 1C 7D 66 56 0F 97 37 06
   0.914895 1  18F6191Cx       Rx   d 8 7B 02 BA 5F FB 02 B1 1C
   0.915407 1  18F61A1Cx       Rx   d 8 1F F3 59 A0 F5 2A 74 19
   0.916005 1  CAC1C13x        Rx   d 8 A3 7D 10 FF FF FF FF FF
   0.916517 1  18F61B1Cx       Rx   d 8 C5 18 B9 0E F5 0E 39 88
   0.917071 1  CAC1C80x        Rx   d 8 58 7D 10 FF FF FF FF FF
   0.917626 1  18F61C1Cx       Rx   d 8 D3 7A C0 A4 A6 A4 78 8C
   0.918522 1  18FEF1FBx       Rx   d 8 FF 00 00 FF FF FF FF FF
   0.918991 1  105             Rx   d 8 8E 08 FF FF FF FF FF FF
   0.923727 1  301             Rx   d 8 1D 0A C8 FF FF 15 15 E3
   0.928365 1  701             Rx   d 8 00 0B 00 02 A0 D9 08 00
   0.928877 1  105             Rx   d 8 8E 08 FF FF FF FF FF FF
   0.929432 1  18F00B80x       Rx   d 8 07 7F 00 F1 FF FF FF FF
   0.930029 1  18F00B80x       Rx   d 8 73 7F 01 F1 FF FF FF FF
   0.930584 1  18F00B80x       Rx   d 8 00 7D 10 F1 FF FF FF FF
   0.931181 1  18F00B80x       Rx   d 8 00 7D 11 F1 FF FF FF FF
   0.933698 1  301             Rx   d 8 1D 0A C9 00 00 15 65 DF
   0.938477 1  105             Rx   d 8 8E 08 FF FF FF FF FF FF
   0.942615 1  18F6101Cx       Rx   d 8 AA B4 39 86 23 CA 36 35
   0.943170 1  18F6181Cx       Rx   d 8 7D CC 2B DF A3 AC A1 4A
   0.943724 1  18F6191Cx       Rx   d 8 3F D7 83 E5 5F 68 E9 0C
   0.944194 1  301             Rx   d 8 1E 0A CA 01 00 15 34 68
   0.944748 1  18F61A1Cx       Rx   d 8 F4 9A BE 07 29 49 F9 41
   0.945303 1  18F61B1Cx       Rx   d 8 2F 73 FA 0C 18 29 E2 C0
   0.945815 1  18F61C1Cx       Rx   d 8 A8 FF 46 6E 86 16 49 E7
   0.948503 1  105             Rx   d 8 8E 08 FF FF FF FF FF FF
   0.949356 1  18F00B80x       Rx   d 8 07 7F 00 F1 FF FF FF FF
   0.949953 1  18F00B80x       Rx   d 8 73 7F 01 F1 FF FF FF FF
   0.950508 1  18F00B80x       Rx   d 8 00 7D 10 F1 FF FF FF FF
   0.951105 1  18F00B80x       Rx   d 8 00 7D 11 F1 FF FF FF FF
   0.953665 1  301             Rx   d 8 1D 0A CB FF FF 15 15 A7
   0.956780 1  18FEF31Cx       Rx   d 8 95 4F 30 9A C0 A7 BF 84
   0.957334 1  18FEE81Cx       Rx   d 8 B6 0C 04 00 5E 65 03 5A
   0.957846 1  18F6101Cx       Rx   d 8 D4 22 46 DC 3D B9 42 8A
   0.958401 1  18F6181Cx       Rx   d 8 16 FF 0C 80 4F E1 A2 7F
   0.958913 1  105             Rx   d 8 8E 08 FF FF FF FF FF FF
   0.959468 1  18F6191Cx       Rx   d 8 70 4E F6 02 61 98 C3 EE
   0.959980 1  18F61A1Cx       Rx   d 8 25 53 24 CF F3 19 6F 7D
   0.960534 1  18F61B1Cx       Rx   d 8 67 13 64 0E 72 27 29 2D
   0.961046 1  18F61C1Cx       Rx   d 8 A8 FF 46 6E 86 16 49 E7
   0.961644 1  CAD801Cx        Rx   d 8 80 7D FC FF FF FF FF FF
   0.962241 1  CFD431Cx        Rx   d 8 FF FF 88 13 FF FF FF FD
   0.962796 1  CAD131Cx        Rx   d 8 80 7D FC FF FF FF FF FF
   0.963606 1  301             Rx   d 8 1D 0A CC 00 00 15 65 13
   0.968513 1  18FEF1FBx       Rx   d 8 FF 00 00 FF FF FF FF FF
   0.969025 1  105             Rx   d 8 8E 08 FF FF FF FF FF FF
   0.969622 1  18F00B80x       Rx   d 8 07 7F 00 F1 FF FF FF FF
   0.970219 1  18F00B80x       Rx   d 8 73 7F 01 F1 FF FF FF FF
   0.970774 1  18F00B80x       Rx   d 8 00 7D 10 F1 FF FF FF FF
   0.971371 1  18F00B80x       Rx   d 8 00 7D 11 F1 FF FF FF FF
   0.973377 1  18F6101Cx       Rx   d 8 51 5B D7 DA B3 BE 96 75
   0.973846 1  301             Rx   d 8 1D 0A CD 00 00 15 64 EF
   0.974400 1  18F6181Cx       Rx   d 8 EC 39 D4 18 47 B0 CF 8A
   0.974955 1  18F6191Cx       Rx   d 8 26 D4 4A B0 B7 17 7B 5F
   0.975510 1  18F61A1Cx       Rx   d 8 ED 5F 8C E7 22 FF 8A 05
   0.976022 1  18F61B1Cx       Rx   d 8 C4 2B E8 B8 62 03 FB A1
   0.976576 1  18F61C1Cx       Rx   d 8 4E 1C 9B 72 54 A4 34 60
   0.978923 1  701             Rx   d 8 00 0B 00 02 A0 D9 08 00
   0.979435 1  105             Rx   d 8 8E 08 FF FF FF FF FF FF
   0.983531 1  301             Rx   d 8 1E 0A CE 01 00 15 35 58
   0.988779 1  105             Rx   d 8 8E 08 FF FF FF FF FF FF
   0.989803 1  18F00B80x       Rx   d 8 07 7F 00 F1 FF FF FF FF
   0.990400 1  18F00B80x       Rx   d 8 73 7F 01 F1 FF FF FF FF
   0.990955 1  18F00B80x       Rx   d 8 00 7D 10 F1 FF FF FF FF
   0.991552 1  18F00B80x       Rx   d 8 00 7D 11 F1 FF FF FF FF
   0.993386 1  18F6101Cx       Rx   d 8 CA AA 75 A0 EA 5F 81 C6
   0.993856 1  301             Rx   d 8 1E 0A CF 00 00 15 65 64
   0.994410 1  18F6181Cx       Rx   d 8 17 D6 E2 04 87 99 E0 7F
   0.994965 1  18F6191Cx       Rx   d 8 FE 9F BA A7 D7 B1 03 CD
   0.995520 1  18F61A1Cx       Rx   d 8 BB 80 CA 88 9C EA 82 26
   0.996074 1  CAC1C13x        Rx   d 8 A3 7D 10 FF FF FF FF FF
   0.996629 1  18F61B1Cx       Rx   d 8 2F 73 FA 0C 18 29 E2 C0
   0.997226 1  CAC1C80x        Rx   d 8 58 7D 10 FF FF FF FF FF
   0.997738 1  18F61C1Cx       Rx   d 8 6A 74 30 4E D6 55 D9 2F
   0.998464 1  105             Rx   d 8 8E 08 FF FF FF FF FF FF
   1.003455 1  301             Rx   d 8 1E 0A D0 00 00 15 62 B0
   1.008490 1  105             Rx   d 8 8E 08 FF FF FF FF FF FF
   1.010026 1  18F00B80x       Rx   d 8 07 7F 00 F1 FF FF FF FF
   1.010580 1  18F00B80x       Rx   d 8 73 7F 01 F1 FF FF FF FF
   1.011178 1  18F00B80x       Rx   d 8 00 7D 10 F1 FF FF FF FF
   1.011732 1  18F00B80x       Rx   d 8 00 7D 11 F1 FF FF FF FF
   1.013396 1  18F6101Cx       Rx   d 8 38 C8 70 8E D1 AD E9 63
   1.013866 1  301             Rx   d 8 1E 0A D1 00 00 15 63 4C
   1.014420 1  18F6181Cx       Rx   d 8 C7 C9 AA 82 8D AF AB 72
   1.014975 1  18F6191Cx       Rx   d 8 5F 1D 58 33 4A 2E 6C F1
   1.015487 1  18F61A1Cx       Rx   d 8 D9 06 97 A7 44 2E 90 6F
   1.016042 1  18F61B1Cx       Rx   d 8 DF A8 B1 72 7F CD 68 3F
   1.016596 1  18F61C1Cx       Rx   d 8 C8 73 D5 F8 E7 38 B2 99
   1.017108 1  18FF0113x       Rx   d 7 AA 01 00 00 00 05 00
   1.018559 1  18FEF1FBx       Rx   d 8 FF 00 00 FF FF FF FF FF
   1.019028 1  105             Rx   d 8 8E 08 FF FF FF FF FF FF
   1.023380 1  301             Rx   d 8 1E 0A D2 00 00 15 63 08
   1.028500 1  105             Rx   d 8 8E 08 FF FF FF FF FF FF
   1.029566 1  701             Rx   d 8 00 0B 00 02 A0 D9 08 00
   1.030334 1  18F00B80x       Rx   d 8 07 7F 00 F1 FF FF FF FF
   1.030889 1  18F00B80x       Rx   d 8 73 7F 01 F1 FF FF FF FF
   1.031486 1  18F00B80x       Rx   d 8 00 7D 10 F1 FF FF FF FF
   1.032041 1  18F00B80x       Rx   d 8 00 7D 11 F1 FF FF FF FF
   1.033364 1  18F6101Cx       Rx   d 8 4C 81 92 F9 5E 93 69 CC
   1.033833 1  301             Rx   d 8 1D 0A D3 FF FF 15 13 07
   1.034387 1  18F6181Cx       Rx   d 8 9F 98 13 C8 C2 5A 34 F7
   1.034942 1  18F6191Cx       Rx   d 8 EB 7A 0A 1B 2B 8A 48 6C
   1.035454 1  18F61A1Cx       Rx   d 8 CE 71 92 80 CE 5E DD 52
   1.036009 1  18F61B1Cx       Rx   d 8 2F 73 FA 0C 18 29 E2 C0
   1.036563 1  18F61C1Cx       Rx   d 8 F8 9E 8D FC 03 CF 5D B9
   1.038483 1  105             Rx   d 8 8E 08 FF FF FF FF FF FF
   1.043304 1  301             Rx   d 8 1E 0A D4 01 00 15 32 40
   1.048467 1  105             Rx   d 8 8E 08 FF FF FF FF FF FF
   1.050600 1  18F00B80x       Rx   d 8 07 7F 00 F1 FF FF FF FF
   1.051155 1  18F00B80x       Rx   d 8 73 7F 01 F1 FF FF FF FF
   1.051752 1  18F00B80x       Rx   d 8 00 7D 10 F1 FF FF FF FF
   1.052349 1  18F00B80x       Rx   d 8 00 7D 11 F1 FF FF FF FF
   1.053288 1  301             Rx   d 8 1D 0A D5 FF FF 15 13 8F
   1.053843 1  18FEF31Cx       Rx   d 8 95 4F 30 9A C0 A7 BF 84
   1.054397 1  18FEE81Cx       Rx   d 8 B6 0C 04 00 5E 65 03 5A
   1.054952 1  18F6101Cx       Rx   d 8 8C E0 4F 99 8C 4E 7A DB
   1.055464 1  18F6181Cx       Rx   d 8 DE A2 AC 06 84 BB 6F 58
   1.056019 1  18F6191Cx       Rx   d 8 A9 C6 F3 B5 2C 29 C4 AA
   1.056531 1  18F61A1Cx       Rx   d 8 5C A0 34 CD 09 CB 54 D9
   1.057085 1  18F61B1Cx       Rx   d 8 AC 0B 30 B3 94 60 30 98
   1.057640 1  18F61C1Cx       Rx   d 8 0D A1 95 9D 43 E4 7A ED
   1.058195 1  CAD801Cx        Rx   d 8 80 7D FC FF FF FF FF FF
   1.058707 1  105             Rx   d 8 8E 08 FF FF FF FF FF FF
   1.059304 1  CAD131Cx        Rx   d 8 80 7D FC FF FF FF FF FF
   1.059858 1  CFD431Cx        Rx   d 8 FF FF 88 13 FF FF FF FD
   1.063229 1  301             Rx   d 8 1D 0A D6 00 00 15 62 0B
   1.069543 1  18FEF1FBx       Rx   d 8 FF 00 00 FF FF FF FF FF
   1.070055 1  105             Rx   d 8 8E 08 FF FF FF FF FF FF
   1.070781 1  18F00B80x       Rx   d 8 07 7F 00 F1 FF FF FF FF
   1.071378 1  18F00B80x       Rx   d 8 73 7F 01 F1 FF FF FF FF
   1.071975 1  18F00B80x       Rx   d 8 00 7D 10 F1 FF FF FF FF
   1.072530 1  18F00B80x       Rx   d 8 00 7D 11 F1 FF FF FF FF
   1.073213 1  301             Rx   d 8 1E 0A D7 01 00 15 32 04
   1.073767 1  18F6101Cx       Rx   d 8 78 74 8F B8 97 F5 76 EE
   1.074279 1  18F6181Cx       Rx   d 8 87 16 46 9A 96 30 74 17
   1.074834 1  18F6191Cx       Rx   d 8 47 B2 72 D2 C3 48 5D 4C
   1.075389 1  CAC1C13x        Rx   d 8 A3 7D 10 FF FF FF FF FF
   1.075943 1  18F61A1Cx       Rx   d 8 89 29 27 FE E1 0F D3 03
   1.076498 1  CAC1C80x        Rx   d 8 58 7D 10 FF FF FF FF FF
   1.077052 1  18F61B1Cx       Rx   d 8 AC 0B 30 B3 94 60 30 98
   1.077607 1  18F61C1Cx       Rx   d 8 84 DA 73 98 FD B4 61 BA
   1.078503 1  105             Rx   d 8 8E 08 FF FF FF FF FF FF
   1.080167 1  701             Rx   d 8 00 0B 00 02 A0 D9 08 00
   1.083154 1  301             Rx   d 8 1D 0A D8 FF FF 15 11 23
   1.088956 1  105             Rx   d 8 8E 08 FF FF FF FF FF FF
   1.092199 1  18F00B80x       Rx   d 8 07 7F 00 F1 FF FF FF FF
   1.092796 1  18F00B80x       Rx   d 8 73 7F 01 F1 FF FF FF FF
   1.093265 1  301             Rx   d 8 1D 0A D9 00 00 15 61 1F
   1.093820 1  18F00B80x       Rx   d 8 00 7D 10 F1 FF FF FF FF
   1.094417 1  18F00B80x       Rx   d 8 00 7D 11 F1 FF FF FF FF
   1.094972 1  18F6101Cx       Rx   d 8 EF C1 BB B0 C2 D7 85 B1
   1.095569 1  18F6181Cx       Rx   d 8 60 A4 6F 32 7C 34 F9 F5
   1.096124 1  18F6191Cx       Rx   d 8 27 15 D8 36 2F 61 3F 51
   1.096636 1  18F61A1Cx       Rx   d 8 E9 FB 23 3E 94 46 DD 33
   1.097190 1  18F61B1Cx       Rx   d 8 B7 64 4C A4 B3 3E 0E 3A
   1.097745 1  18F61C1Cx       Rx   d 8 11 56 47 C7 F8 E6 09 3B
   1.098470 1  105             Rx   d 8 8E 08 FF FF FF FF FF FF
   1.099537 1  701             Rx   d 8 00 0A 00 02 16 72 00 00
   1.100006 1  701             Rx   d 8 01 0A 00 02 19 00 00 00
   1.103121 1  301             Rx   d 8 1D 0A DA 00 00 15 61 5B
   1.108497 1  105             Rx   d 8 8E 08 FF FF FF FF FF FF
   1.112464 1  18F00B80x       Rx   d 8 07 7F 00 F1 FF FF FF FF
   1.113019 1  18F00B80x       Rx   d 8 73 7F 01 F1 FF FF FF FF
   1.113488 1  301             Rx   d 8 1E 0A DB 01 00 15 31 54
   1.114086 1  18F00B80x       Rx   d 8 00 7D 10 F1 FF FF FF FF
   1.114683 1  18F00B80x       Rx   d 8 00 7D 11 F1 FF FF FF FF
   1.115195 1  18F6101Cx       Rx   d 8 CF C3 5D 9B 52 4E 2A 09
   1.115878 1  18F6181Cx       Rx   d 8 5B 6F 57 5C 0B B0 FC CB
   1.116390 1  18F6191Cx       Rx   d 8 B9 D8 B6 DB 16 3C 51 1A
   1.116944 1  18F61A1Cx       Rx   d 8 97 98 DD A5 97 05 E7 EC
   1.117456 1  18F61B1Cx       Rx   d 8 7E 3A 94 D6 75 86 1F 22
   1.118011 1  18F61C1Cx       Rx   d 8 40 6C A0 87 45 68 A3 EC
   1.118608 1  18FEF1FBx       Rx   d 8 FF 00 00 FF FF FF FF FF
   1.119078 1  105             Rx   d 8 8E 08 FF FF FF FF FF FF
   1.123045 1  301             Rx   d 8 1E 0A DC 00 00 15 61 E0
   1.128506 1  105             Rx   d 8 8E 08 FF FF FF FF FF FF
   1.130810 1  701             Rx   d 8 00 0B 00 02 A0 D9 08 00
   1.132645 1  18F00B80x       Rx   d 8 07 7F 00 F1 FF FF FF FF
   1.133114 1  301             Rx   d 8 1E 0A DD 00 00 15 60 1C
   1.133712 1  18F00B80x       Rx   d 8 73 7F 01 F1 FF FF FF FF
   1.134266 1  18F00B80x       Rx   d 8 00 7D 10 F1 FF FF FF FF
   1.134864 1  18F00B80x       Rx   d 8 00 7D 11 F1 FF FF FF FF
   1.138490 1  105             Rx   d 8 8E 08 FF FF FF FF FF FF
   1.142501 1  18F6101Cx       Rx   d 8 05 EF 20 82 C2 37 8E A0
   1.142970 1  301             Rx   d 8 1E 0A DE 00 00 15 60 58
   1.143525 1  18F6181Cx       Rx   d 8 F3 59 39 1B CC 09 81 AE
   1.144037 1  18F6191Cx       Rx   d 8 D8 1B 38 A2 12 EB B8 2C
   1.144591 1  18F61A1Cx       Rx   d 8 2A F4 33 EE 1F F9 4D 03
   1.145146 1  18F61B1Cx       Rx   d 8 4E 22 79 63 AF 03 B2 6B
   1.145700 1  18F61C1Cx       Rx   d 8 26 2C 2D 4A 40 45 DA 4A
   1.148474 1  105             Rx   d 8 8E 08 FF FF FF FF FF FF
   1.152826 1  18F00B80x       Rx   d 8 07 7F 00 F1 FF FF FF FF
   1.153295 1  301             Rx   d 8 1E 0A DF 00 00 15 61 A4
   1.153892 1  18F00B80x       Rx   d 8 73 7F 01 F1 FF FF FF FF
   1.154447 1  18F00B80x       Rx   d 8 00 7D 10 F1 FF FF FF FF
   1.155044 1  18F00B80x       Rx   d 8 00 7D 11 F1 FF FF FF FF
   1.155599 1  CAC1C13x        Rx   d 8 A3 7D 10 FF FF FF FF FF
   1.156153 1  18FEF31Cx       Rx   d 8 95 4F 30 9A C0 A7 BF 84
   1.156708 1  CAC1C80x        Rx   d 8 58 7D 10 FF FF FF FF FF
   1.157305 1  18FEE81Cx       Rx   d 8 B6 0C 04 00 5D 65 03 5A
   1.157817 1  18FEE61Cx       Rx   d 8 75 16 09 0A 16 23 00 00
   1.158372 1  18F6101Cx       Rx   d 8 9D 97 23 C9 91 33 CF 24
   1.158841 1  105             Rx   d 8 8E 08 FF FF FF FF FF FF
   1.159396 1  18F6181Cx       Rx   d 8 2C D7 1B 65 AB BE 42 47
   1.159951 1  18F6191Cx       Rx   d 8 A7 0C EF 1C B7 C2 FA B0
   1.160505 1  18F61A1Cx       Rx   d 8 6A BD 1F 89 4A CC C0 1F
   1.161017 1  18F61B1Cx       Rx   d 8 A5 AA 71 C7 EF E9 78 38
   1.161572 1  18F61C1Cx       Rx   d 8 26 2C 2D 4A 40 45 DA 4A
   1.162169 1  CAD801Cx        Rx   d 8 80 7D FC FF FF FF FF FF
   1.162724 1  CFD431Cx        Rx   d 8 FF FF 88 13 FF FF FF FD
   1.163193 1  301             Rx   d 8 1E 0A E0 00 00 15 6D B0
   1.163790 1  CAD131Cx        Rx   d 8 80 7D FC FF FF FF FF FF
   1.168526 1  18FEF1FBx       Rx   d 8 FF 00 00 FF FF FF FF FF
   1.169038 1  105             Rx   d 8 8E 08 FF FF FF FF FF FF
   1.172835 1  301             Rx   d 8 1E 0A E1 00 00 15 6C 4C
   1.173433 1  18F00B80x       Rx   d 8 07 7F 00 F1 FF FF FF FF
   1.174030 1  18F00B80x       Rx   d 8 73 7F 01 F1 FF FF FF FF
   1.174542 1  18F6101Cx       Rx   d 8 A6 7F 30 3B 8C BF C0 11
   1.175139 1  18F00B80x       Rx   d 8 00 7D 10 F1 FF FF FF FF
   1.175737 1  18F00B80x       Rx   d 8 00 7D 11 F1 FF FF FF FF
   1.176249 1  18F6181Cx       Rx   d 8 7E 6D 18 B3 1C 56 FB 87
   1.176803 1  18F6191Cx       Rx   d 8 A9 AB 12 61 03 0C 1B C6
   1.177358 1  18F61A1Cx       Rx   d 8 54 02 20 45 95 0F B5 DD
   1.177870 1  18F61B1Cx       Rx   d 8 6E 5B F1 EC 84 89 20 10
   1.178425 1  18F61C1Cx       Rx   d 8 4F B5 4C 88 A2 1A 02 C2
   1.178894 1  105             Rx   d 8 8E 08 FF FF FF FF FF FF
   1.181368 1  701             Rx   d 8 00 0B 00 02 A0 D9 08 00
   1.182819 1  301             Rx   d 8 1D 0A E2 FF FF 15 1D FB
   1.188493 1  105             Rx   d 8 8E 08 FF FF FF FF FF FF
   1.192803 1  301             Rx   d 8 1E 0A E3 01 00 15 3C 34
   1.193357 1  18F00B80x       Rx   d 8 07 7F 00 F1 FF FF FF FF
   1.193955 1  18F00B80x       Rx   d 8 73 7F 01 F1 FF FF FF FF
   1.194509 1  18F00B80x       Rx   d 8 00 7D 10 F1 FF FF FF FF
   1.195107 1  18F00B80x       Rx   d 8 00 7D 11 F1 FF FF FF FF
   1.195619 1  18F6101Cx       Rx   d 8 B8 C4 A4 9B 7A FD 06 EB
   1.196173 1  18F6181Cx       Rx   d 8 B8 EB 6B E7 63 4D 5E BF
   1.196728 1  18F6191Cx       Rx   d 8 46 BF ED 20 A7 C5 76 EA
   1.197240 1  18F61A1Cx       Rx   d 8 39 51 70 85 0E 72 B4 55
   1.197794 1  18F61B1Cx       Rx   d 8 EB 4A CB FF 08 8C 8E 20
   1.198349 1  18F61C1Cx       Rx   d 8 E4 88 65 FC 15 F4 A7 CA
   1.198861 1  105             Rx   d 8 8E 08 FF FF FF FF FF FF
   1.202744 1  301             Rx   d 8 1E 0A E4 00 00 15 6C 80
   1.208503 1  105             Rx   d 8 8E 08 FF FF FF FF FF FF
   1.212727 1  301             Rx   d 8 1E 0A E5 00 00 15 6D 7C
   1.213452 1  18F00B80x       Rx   d 8 07 7F 00 F1 FF FF FF FF
   1.214050 1  18F00B80x       Rx   d 8 73 7F 01 F1 FF FF FF FF
   1.214604 1  18F00B80x       Rx   d 8 00 7D 10 F1 FF FF FF FF
   1.215202 1  18F00B80x       Rx   d 8 00 7D 11 F1 FF FF FF FF
   1.215756 1  18F6101Cx       Rx   d 8 4A 79 A0 15 B5 EA 69 C6
   1.216268 1  18F6181Cx       Rx   d 8 E8 19 E5 07 BA 51 1A DA
   1.216823 1  18F6191Cx       Rx   d 8 9C E8 00 35 BD CD 36 38
   1.217335 1  18F61A1Cx       Rx   d 8 DC 97 B1 61 CB 93 F5 61
   1.217890 1  18F61B1Cx       Rx   d 8 EE 6B 0B 9E EB F8 07 97
   1.218444 1  18F61C1Cx       Rx   d 8 61 67 DD C4 03 31 32 76
   1.218999 1  18FEF1FBx       Rx   d 8 FF 00 00 FF FF FF FF FF
   1.219511 1  105             Rx   d 8 8E 08 FF FF FF FF FF FF
   1.222668 1  301             Rx   d 8 1D 0A E6 FF FF 15 1C CB
   1.228471 1  105             Rx   d 8 8E 08 FF FF FF FF FF FF
   1.231884 1  701             Rx   d 8 00 0B 00 02 A0 D9 08 00
   1.232652 1  301             Rx   d 8 1E 0A E7 01 00 15 3D 04
   1.233462 1  18F6101Cx       Rx   d 8 44 28 3C FD 83 88 0F 13
   1.234060 1  18F00B80x       Rx   d 8 07 7F 00 F1 FF FF FF FF
   1.234614 1  18F00B80x       Rx   d 8 73 7F 01 F1 FF FF FF FF
   1.235212 1  CAC1C13x        Rx   d 8 A3 7D 10 FF FF FF FF FF
   1.235766 1  18F00B80x       Rx   d 8 00 7D 10 F1 FF FF FF FF
   1.236364 1  18F00B80x       Rx   d 8 00 7D 11 F1 FF FF FF FF
   1.236918 1  CAC1C80x        Rx   d 8 58 7D 10 FF FF FF FF FF
   1.237473 1  18F6181Cx       Rx   d 8 2A 02 FD AC A0 E0 86 A0
   1.238028 1  18F6191Cx       Rx   d 8 E3 7A B9 85 FC FD E6 A1
   1.238540 1  105             Rx   d 8 8E 08 FF FF FF FF FF FF
   1.239051 1  18F61A1Cx       Rx   d 8 5F AB 2F 8E D1 89 09 DE
   1.239606 1  18F61B1Cx       Rx   d 8 CF 02 84 1C 10 29 B5 D4
   1.240161 1  18F61C1Cx       Rx   d 8 90 EE 5A A4 1E 80 2B 8E
   1.242635 1  301             Rx   d 8 1E 0A E8 00 00 15 6F D0
   1.248480 1  105             Rx   d 8 8E 08 FF FF FF FF FF FF
   1.252576 1  301             Rx   d 8 1E 0A E9 00 00 15 6E 2C
   1.253643 1  18FEF31Cx       Rx   d 8 95 4F 30 9A BF A7 BF 84
   1.254198 1  18F00B80x       Rx   d 8 07 7F 00 F1 FF FF FF FF
   1.254752 1  18FEE81Cx       Rx   d 8 B6 0C 09 00 5D 65 03 5A
   1.255350 1  18F00B80x       Rx   d 8 73 7F 01 F1 FF FF FF FF
   1.255861 1  18F6101Cx       Rx   d 8 84 F9 21 D1 9A 41 0C DB
   1.256459 1  18F00B80x       Rx   d 8 00 7D 10 F1 FF FF FF FF
   1.257013 1  18F00B80x       Rx   d 8 00 7D 11 F1 FF FF FF FF
   1.257568 1  18F6181Cx       Rx   d 8 66 08 45 AF 3B EE 8B 26
   1.258080 1  18F6191Cx       Rx   d 8 5A A3 95 51 A4 AA CA 8D
   1.258592 1  105             Rx   d 8 8E 08 FF FF FF FF FF FF
   1.259147 1  18F61A1Cx       Rx   d 8 F4 90 5B AA 1A BA 21 7A
   1.259659 1  18F61B1Cx       Rx   d 8 EB 4A CB FF 08 8C 8E 20
   1.260213 1  18F61C1Cx       Rx   d 8 63 0E 92 C2 FF B1 11 3C
   1.260811 1  CAD801Cx        Rx   d 8 80 7D FC FF FF FF FF FF
   1.261323 1  18FF0113x       Rx   d 7 AA 01 00 00 00 05 00
   1.261920 1  CAD131Cx        Rx   d 8 80 7D FC FF FF FF FF FF
   1.262475 1  CFD431Cx        Rx   d 8 FF FF 88 13 FF FF FF FD
   1.262944 1  301             Rx   d 8 1E 0A EA 00 00 15 6E 68
   1.268533 1  18FEF1FBx       Rx   d 8 FF 00 00 FF FF FF FF FF
   1.269002 1  105             Rx   d 8 8E 08 FF FF FF FF FF FF
   1.272501 1  301             Rx   d 8 1E 0A EB 00 00 15 6F 94
   1.273439 1  18F6101Cx       Rx   d 8 D8 8F 33 E3 28 31 3D 43
   1.273994 1  18F6181Cx       Rx   d 8 60 7D E9 B3 97 AF AF 64
   1.274549 1  18F00B80x       Rx   d 8 07 7F 00 F1 FF FF FF FF
   1.275146 1  18F00B80x       Rx   d 8 73 7F 01 F1 FF FF FF FF
   1.275701 1  18F00B80x       Rx   d 8 00 7D 10 F1 FF FF FF FF
   1.276298 1  18F00B80x       Rx   d 8 00 7D 11 F1 FF FF FF FF
   1.276853 1  18F6191Cx       Rx   d 8 A9 6D 7C 4D 53 46 08 CA
   1.277365 1  18F61A1Cx       Rx   d 8 55 C7 77 0E 03 EB 61 F6
   1.277919 1  18F61B1Cx       Rx   d 8 57 D7 87 30 C5 2F 70 BC
   1.278474 1  18F61C1Cx       Rx   d 8 D0 B0 C1 87 C1 D3 80 5D
   1.278943 1  105             Rx   d 8 8E 08 FF FF FF FF FF FF
   1.282442 1  301             Rx   d 8 1D 0A EC FF FF 15 1F 13
   1.282954 1  701             Rx   d 8 00 0B 00 02 A0 D9 08 00
   1.288500 1  105             Rx   d 8 8E 08 FF FF FF FF FF FF
   1.292425 1  301             Rx   d 8 1E 0A ED 01 00 15 3E DC
   1.293449 1  18F6101Cx       Rx   d 8 8F 0B 33 21 50 F5 D1 3C
   1.293961 1  18F6181Cx       Rx   d 8 60 D2 6C 41 40 9D 14 0B
   1.294516 1  18F6191Cx       Rx   d 8 F9 EB 78 6D B3 0D A5 60
   1.295113 1  18F00B80x       Rx   d 8 07 7F 00 F1 FF FF FF FF
   1.295668 1  18F00B80x       Rx   d 8 73 7F 01 F1 FF FF FF FF
   1.296223 1  18F00B80x       Rx   d 8 00 7D 10 F1 FF FF FF FF
   1.296777 1  18F61A1Cx       Rx   d 8 24 58 D5 D8 F5 AD 5C C9
   1.297375 1  18F00B80x       Rx   d 8 00 7D 11 F1 FF FF FF FF
   1.297887 1  18F61B1Cx       Rx   d 8 24 55 5E 30 0B 4E 75 04
   1.298441 1  18F61C1Cx       Rx   d 8 55 15 83 AF 83 B2 55 D1
   1.298953 1  105             Rx   d 8 8E 08 FF FF FF FF FF FF
   1.302409 1  301             Rx   d 8 1D 0A EE FF FF 15 1E AB
   1.308467 1  105             Rx   d 8 8E 08 FF FF FF FF FF FF
   1.312350 1  301             Rx   d 8 1D 0A EF 00 00 15 6E 97
   1.313417 1  18F6101Cx       Rx   d 8 CC A5 98 60 C3 6E D1 EC
   1.313971 1  18F6181Cx       Rx   d 8 BE B5 BF 47 3F 6D F4 4D
   1.314526 1  18F6191Cx       Rx   d 8 55 80 7E B7 8E 5D 03 31
   1.315081 1  CAC1C13x        Rx   d 8 A3 7D 10 FF FF FF FF FF
   1.315635 1  18F00B80x       Rx   d 8 07 7F 00 F1 FF FF FF FF
   1.316232 1  18F00B80x       Rx   d 8 73 7F 01 F1 FF FF FF FF
   1.316787 1  18F00B80x       Rx   d 8 00 7D 10 F1 FF FF FF FF
   1.317384 1  18F00B80x       Rx   d 8 00 7D 11 F1 FF FF FF FF
   1.317939 1  CAC1C80x        Rx   d 8 58 7D 10 FF FF FF FF FF
   1.318494 1  18F61A1Cx       Rx   d 8 46 D3 98 58 01 73 DE 39
   1.319048 1  18F61B1Cx       Rx   d 8 EE 6B 0B 9E EB F8 07 97
   1.319560 1  18F61C1Cx       Rx   d 8 D0 77 28 23 CF 6D 7E A7
   1.320158 1  18FEF1FBx       Rx   d 8 FF 00 00 FF FF FF FF FF
   1.320670 1  105             Rx   d 8 8E 08 FF FF FF FF FF FF
   1.322334 1  301             Rx   d 8 1E 0A F0 01 00 15 38 B0
   1.328477 1  105             Rx   d 8 8E 08 FF FF FF FF FF FF
   1.332275 1  301             Rx   d 8 1E 0A F1 00 00 15 68 8C
   1.333128 1  701             Rx   d 8 00 0B 00 02 A0 D9 08 00
   1.335133 1  18F00B80x       Rx   d 8 07 7F 00 F1 FF FF FF FF
   1.335688 1  18F00B80x       Rx   d 8 73 7F 01 F1 FF FF FF FF
   1.336285 1  18F00B80x       Rx   d 8 00 7D 10 F1 FF FF FF FF
   1.336840 1  18F00B80x       Rx   d 8 00 7D 11 F1 FF FF FF FF
   1.337352 1  18FF0213x       Rx   d 6 F4 38 DA 00 00 00
   1.338461 1  105             Rx   d 8 8E 08 FF FF FF FF FF FF
   1.342258 1  301             Rx   d 8 1E 0A F2 00 00 15 68 C8
   1.342813 1  18F6101Cx       Rx   d 8 4F 2C 9C 31 F3 F7 8C 95
   1.343325 1  18F6181Cx       Rx   d 8 CB 8E E4 B6 D2 D5 1B 2B
   1.343879 1  18F6191Cx       Rx   d 8 6F BE 07 4C DC 0C 30 5D
   1.344647 1  18F61A1Cx       Rx   d 8 22 32 5D B8 70 5F 0D 86
   1.345202 1  18F61B1Cx       Rx   d 8 56 F0 8F 0F 8C A5 6D CF
   1.345757 1  18F61C1Cx       Rx   d 8 2B FC 3C 6F A1 D9 7F E4
   1.348487 1  105             Rx   d 8 8E 08 FF FF FF FF FF FF
   1.350066 1  701             Rx   d 8 00 0A 00 02 16 72 00 00
   1.350578 1  701             Rx   d 8 01 0A 00 02 32 00 00 00
   1.352242 1  301             Rx   d 8 1E 0A F3 00 00 15 69 34
   1.354162 1  18FEF31Cx       Rx   d 8 95 4F 30 9A BF A7 BF 84
   1.354716 1  18FEE81Cx       Rx   d 8 B6 0C 09 00 5D 65 03 5A
   1.355271 1  18F6101Cx       Rx   d 8 E1 61 DB 9A F9 8A B8 9D
   1.355868 1  18F00B80x       Rx   d 8 07 7F 00 F1 FF FF FF FF
   1.356423 1  18F00B80x       Rx   d 8 73 7F 01 F1 FF FF FF FF
   1.356978 1  18F6181Cx       Rx   d 8 A6 3E DC DA D3 53 B9 18
   1.357532 1  18F00B80x       Rx   d 8 00 7D 10 F1 FF FF FF FF
   1.358129 1  18F00B80x       Rx   d 8 00 7D 11 F1 FF FF FF FF
   1.358599 1  105             Rx   d 8 8E 08 FF FF FF FF FF FF
   1.359153 1  18F6191Cx       Rx   d 8 15 32 B3 D4 2E 03 CE C8
   1.359708 1  18F61A1Cx       Rx   d 8 23 4E 2B AF 98 1C C0 45
   1.360263 1  18F61B1Cx       Rx   d 8 CF 02 84 1C 10 29 B5 D4
   1.360817 1  18F61C1Cx       Rx   d 8 2B FC 3C 6F A1 D9 7F E4
   1.361415 1  CAD801Cx        Rx   d 8 80 7D FC FF FF FF FF FF
   1.361969 1  CFD431Cx        Rx   d 8 FF FF 88 13 FF FF FF FD
   1.362439 1  301             Rx   d 8 1D 0A F4 FF FF 15 19 B3
   1.363036 1  CAD131Cx        Rx   d 8 80 7D FC FF FF FF FF FF
   1.368540 1  18FEF1FBx       Rx   d 8 FF 00 00 FF FF FF FF FF
   1.369009 1  105             Rx   d 8 8E 08 FF FF FF FF FF FF
   1.372166 1  301             Rx   d 8 1D 0A F5 00 00 15 69 8F
   1.373361 1  18F6101Cx       Rx   d 8 00 DF 90 BB 8D A2 02 73
   1.373916 1  18F6181Cx       Rx   d 8 C9 14 72 DD 04 40 1F A8
   1.374428 1  18F6191Cx       Rx   d 8 FE 78 13 5C 49 CC F3 4D
   1.374982 1  18F61A1Cx       Rx   d 8 89 F5 C2 2C D9 77 AE D2
   1.375494 1  18F61B1Cx       Rx   d 8 C5 18 B9 0E F5 0E 39 88
   1.376091 1  18F00B80x       Rx   d 8 07 7F 00 F1 FF FF FF FF
   1.376646 1  18F00B80x       Rx   d 8 73 7F 01 F1 FF FF FF FF
   1.377201 1  18F00B80x       Rx   d 8 00 7D 10 F1 FF FF FF FF
   1.377798 1  18F00B80x       Rx   d 8 00 7D 11 F1 FF FF FF FF
   1.378353 1  18F61C1Cx       Rx   d 8 90 F1 65 ED 71 0E 38 4F
   1.378822 1  105             Rx   d 8 8E 08 FF FF FF FF FF FF
   1.382107 1  301             Rx   d 8 1D 0A F6 00 00 15 69 CB
   1.383771 1  701             Rx   d 8 00 0B 00 02 A0 D9 08 00
   1.388507 1  105             Rx   d 8 8E 08 FF FF FF FF FF FF
   1.392048 1  301             Rx   d 8 1D 0A F7 00 00 15 68 37
   1.393755 1  18F6101Cx       Rx   d 8 1F 6F 32 A8 FF D9 00 B7
   1.394309 1  18F6181Cx       Rx   d 8 9E 7D 2B 63 3D D0 36 A3
   1.394864 1  CAC1C13x        Rx   d 8 A3 7D 10 FF FF FF FF FF
   1.395419 1  18F6191Cx       Rx   d 8 DC 60 BF B3 67 51 49 55
   1.395973 1  CAC1C80x        Rx   d 8 58 7D 10 FF FF FF FF FF
   1.396571 1  18F00B80x       Rx   d 8 07 7F 00 F1 FF FF FF FF
   1.397125 1  18F00B80x       Rx   d 8 73 7F 01 F1 FF FF FF FF
   1.397680 1  18F00B80x       Rx   d 8 00 7D 10 F1 FF FF FF FF
   1.398277 1  18F00B80x       Rx   d 8 00 7D 11 F1 FF FF FF FF
   1.398789 1  105             Rx   d 8 8E 08 FF FF FF FF FF FF
   1.399301 1  18F61A1Cx       Rx   d 8 9D 15 46 80 A7 D2 44 86
   1.399856 1  18F61B1Cx       Rx   d 8 C5 18 B9 0E F5 0E 39 88
   1.400411 1  18F61C1Cx       Rx   d 8 05 B8 C0 F3 69 2F 37 98
   1.402032 1  301             Rx   d 8 1E 0A F8 01 00 15 3A D0
   1.405104 1  18FEE61Cx       Rx   d 8 76 16 09 0A 16 23 00 00
   1.408474 1  105             Rx   d 8 8E 08 FF FF FF FF FF FF
   1.412015 1  301             Rx   d 8 1E 0A F9 00 00 15 6A EC
   1.413381 1  18F6101Cx       Rx   d 8 B2 0C 8B AE 23 9A 20 FF
   1.413935 1  18F6181Cx       Rx   d 8 3D 9E 88 E9 28 A7 CE A4
   1.414490 1  18F6191Cx       Rx   d 8 A5 47 01 8D F7 16 82 5E
   1.415045 1  18F61A1Cx       Rx   d 8 05 92 02 CC CF 09 59 39
   1.415557 1  18F61B1Cx       Rx   d 8 F0 A5 25 C3 2C D6 7F AB
   1.416111 1  18F61C1Cx       Rx   d 8 0E 5D 62 82 7C 0F 55 F7
   1.416709 1  18F00B80x       Rx   d 8 07 7F 00 F1 FF FF FF FF
   1.417306 1  18F00B80x       Rx   d 8 73 7F 01 F1 FF FF FF FF
   1.417860 1  18F00B80x       Rx   d 8 00 7D 10 F1 FF FF FF FF
   1.418458 1  18F00B80x       Rx   d 8 00 7D 11 F1 FF FF FF FF
   1.419055 1  18FEF1FBx       Rx   d 8 FF 00 00 FF FF FF FF FF
   1.419567 1  105             Rx   d 8 8E 08 FF FF FF FF FF FF
   1.421956 1  301             Rx   d 8 1D 0A FA FF FF 15 1B 5B
   1.428484 1  105             Rx   d 8 8E 08 FF FF FF FF FF FF
   1.431940 1  301             Rx   d 8 1E 0A FB 01 00 15 3A 94
   1.433348 1  18F6101Cx       Rx   d 8 D6 42 28 C9 D5 D6 91 E1
   1.433903 1  18F6181Cx       Rx   d 8 55 FA 9D 8E 1A 43 68 E6
   1.434457 1  18F6191Cx       Rx   d 8 C2 D6 8F CF BD 60 F8 6C
   1.434969 1  18F61A1Cx       Rx   d 8 B0 C2 22 22 59 7E D2 CD
   1.435524 1  18F61B1Cx       Rx   d 8 B7 64 4C A4 B3 3E 0E 3A
   1.435993 1  701             Rx   d 8 00 0B 00 02 A0 D9 08 00
   1.436548 1  18F00B80x       Rx   d 8 07 7F 00 F1 FF FF FF FF
   1.437102 1  18F61C1Cx       Rx   d 8 D2 41 EB C3 A9 C0 FC 30
   1.437700 1  18F00B80x       Rx   d 8 73 7F 01 F1 FF FF FF FF
   1.438254 1  18F00B80x       Rx   d 8 00 7D 10 F1 FF FF FF FF
   1.438852 1  18F00B80x       Rx   d 8 00 7D 11 F1 FF FF FF FF
   1.439364 1  105             Rx   d 8 8E 08 FF FF FF FF FF FF
   1.441881 1  301             Rx   d 8 1D 0A FC FF FF 15 1B D3
   1.448494 1  105             Rx   d 8 8E 08 FF FF FF FF FF FF
   1.451865 1  301             Rx   d 8 1E 0A FD 01 00 15 3A 1C
   1.453400 1  18FEF31Cx       Rx   d 8 95 4F 30 9A BF A7 BF 84
   1.453955 1  18FEE81Cx       Rx   d 8 B6 0C 04 00 5D 65 03 5A
   1.454510 1  18F6101Cx       Rx   d 8 2A C3 C0 C9 FA C6 A6 95
   1.455022 1  18F6181Cx       Rx   d 8 CB 90 00 41 0A B0 9A 48
   1.455576 1  18F6191Cx       Rx   d 8 1A AD 29 B7 50 7C D7 2A
   1.456131 1  18F61A1Cx       Rx   d 8 C7 88 39 53 B3 19 E9 4B
   1.456686 1  18F00B80x       Rx   d 8 07 7F 00 F1 FF FF FF FF
   1.457283 1  18F00B80x       Rx   d 8 73 7F 01 F1 FF FF FF FF
   1.457838 1  18F00B80x       Rx   d 8 00 7D 10 F1 FF FF FF FF
   1.458435 1  18F00B80x       Rx   d 8 00 7D 11 F1 FF FF FF FF
   1.458904 1  105             Rx   d 8 8E 08 FF FF FF FF FF FF
   1.459459 1  18F61B1Cx       Rx   d 8 DF A8 B1 72 7F CD 68 3F
   1.460014 1  18F61C1Cx       Rx   d 8 C1 A9 1F 90 4C 20 5C 05
   1.460611 1  CAD801Cx        Rx   d 8 80 7D FC FF FF FF FF FF
   1.461208 1  CFD431Cx        Rx   d 8 FF FF 88 13 FF FF FF FD
   1.461763 1  CAD131Cx        Rx   d 8 80 7D FC FF FF FF FF FF
   1.462232 1  301             Rx   d 8 1E 0A FE 00 00 15 6B 98
   1.468547 1  18FEF1FBx       Rx   d 8 FF 00 00 FF FF FF FF FF
   1.469016 1  105             Rx   d 8 8E 08 FF FF FF FF FF FF
   1.471789 1  301             Rx   d 8 1E 0A FF 00 00 15 6A 64
   1.473325 1  18F6101Cx       Rx   d 8 B0 63 7D 73 BD B0 9C 15
   1.473880 1  18F6181Cx       Rx   d 8 C7 60 85 58 91 CC 53 56
   1.474392 1  18F6191Cx       Rx   d 8 42 D6 9B A5 06 72 04 35
   1.474989 1  CAC1C13x        Rx   d 8 A3 7D 10 FF FF FF FF FF
   1.475501 1  18F61A1Cx       Rx   d 8 85 B5 6A 83 98 74 A4 56
   1.476098 1  CAC1C80x        Rx   d 8 58 7D 10 FF FF FF FF FF
   1.476610 1  18F61B1Cx       Rx   d 8 B7 64 4C A4 B3 3E 0E 3A
   1.477208 1  18F00B80x       Rx   d 8 07 7F 00 F1 FF FF FF FF
   1.477762 1  18F00B80x       Rx   d 8 73 7F 01 F1 FF FF FF FF
   1.478359 1  18F00B80x       Rx   d 8 00 7D 10 F1 FF FF FF FF
   1.478914 1  18F00B80x       Rx   d 8 00 7D 11 F1 FF FF FF FF
   1.479426 1  105             Rx   d 8 8E 08 FF FF FF FF FF FF
   1.479981 1  18F61C1Cx       Rx   d 8 17 FA 5D D3 E7 AD 0C 49
   1.481773 1  301             Rx   d 8 1E 0A 00 00 00 15 5A 70
   1.485357 1  701             Rx   d 8 00 0B 00 02 A0 D9 08 00
   1.488471 1  105             Rx   d 8 8E 08 FF FF FF FF FF FF
   1.491714 1  301             Rx   d 8 1D 0A 01 FF FF 15 2A 7F
   1.493378 1  18F6101Cx       Rx   d 8 55 5C 82 E9 CD 7E 5D 16
   1.493890 1  18F6181Cx       Rx   d 8 65 34 63 8B 69 C6 09 35
   1.494444 1  18F6191Cx       Rx   d 8 1D 00 F8 99 5C 0B 9D 6B
   1.494999 1  18F61A1Cx       Rx   d 8 F5 25 43 20 7C F3 35 29
   1.495553 1  18F61B1Cx       Rx   d 8 DF A8 B1 72 7F CD 68 3F
   1.496065 1  18F61C1Cx       Rx   d 8 B2 7C A0 95 D5 2F 0B 4D
   1.496620 1  18FF0113x       Rx   d 7 AA 01 00 00 00 05 00
   1.497217 1  18F00B80x       Rx   d 8 07 7F 00 F1 FF FF FF FF
   1.497772 1  18F00B80x       Rx   d 8 73 7F 01 F1 FF FF FF FF
   1.498369 1  18F00B80x       Rx   d 8 00 7D 10 F1 FF FF FF FF
   1.498967 1  18F00B80x       Rx   d 8 00 7D 11 F1 FF FF FF FF
   1.499436 1  105             Rx   d 8 8E 08 FF FF FF FF FF FF
   1.501655 1  301             Rx   d 8 1E 0A 02 01 00 15 0A 08
   1.508566 1  105             Rx   d 8 8E 08 FF FF FF FF FF FF
   1.511638 1  301             Rx   d 8 1E 0A 03 00 00 15 5A 34
   1.513387 1  18F6101Cx       Rx   d 8 DF FE 2A FA 0C 82 BF 36
   1.513942 1  18F6181Cx       Rx   d 8 E0 04 51 80 3F 50 CC 74
   1.514454 1  18F6191Cx       Rx   d 8 5B E6 15 13 17 E4 D9 C3
   1.515009 1  18F61A1Cx       Rx   d 8 E9 51 AE B7 58 1B 4D E7
   1.515563 1  18F61B1Cx       Rx   d 8 A5 AA 71 C7 EF E9 78 38
   1.516118 1  18F61C1Cx       Rx   d 8 2E 67 A7 3C 4C 07 7E B5
   1.518209 1  18F00B80x       Rx   d 8 07 7F 00 F1 FF FF FF FF
   1.518763 1  18F00B80x       Rx   d 8 73 7F 01 F1 FF FF FF FF
   1.519361 1  18F00B80x       Rx   d 8 00 7D 10 F1 FF FF FF FF
   1.519915 1  18F00B80x       Rx   d 8 00 7D 11 F1 FF FF FF FF
   1.520512 1  18FEF1FBx       Rx   d 8 FF 00 00 FF FF FF FF FF
   1.521024 1  105             Rx   d 8 8E 08 FF FF FF FF FF FF
   1.521622 1  301             Rx   d 8 1E 0A 04 00 00 15 5B 40
   1.528491 1  105             Rx   d 8 8E 08 FF FF FF FF FF FF
   1.531563 1  301             Rx   d 8 1E 0A 05 00 00 15 5A BC
   1.535915 1  701             Rx   d 8 00 0B 00 02 A0 D9 08 00
   1.538389 1  18F00B80x       Rx   d 8 07 7F 00 F1 FF FF FF FF
   1.538986 1  18F00B80x       Rx   d 8 73 7F 01 F1 FF FF FF FF
   1.539541 1  18F00B80x       Rx   d 8 00 7D 10 F1 FF FF FF FF
   1.540138 1  18F00B80x       Rx   d 8 00 7D 11 F1 FF FF FF FF
   1.540650 1  105             Rx   d 8 8E 08 FF FF FF FF FF FF
   1.541504 1  301             Rx   d 8 1D 0A 06 FF FF 15 2B 0B
   1.545600 1  18F6101Cx       Rx   d 8 AC A1 D2 13 19 26 82 D6
   1.546154 1  18F6181Cx       Rx   d 8 F1 27 9E 4E 24 71 06 5E
   1.546709 1  18F6191Cx       Rx   d 8 31 7B E3 C0 B1 CF 49 71
   1.547221 1  18F61A1Cx       Rx   d 8 5C D2 AD DD 32 B7 AB 0C
   1.547775 1  18F61B1Cx       Rx   d 8 C5 18 B9 0E F5 0E 39 88
   1.548287 1  18F61C1Cx       Rx   d 8 3A C3 55 85 2E D1 11 6E
   1.548799 1  105             Rx   d 8 8E 08 FF FF FF FF FF FF
   1.551487 1  301             Rx   d 8 1E 0A 07 01 00 15 0A C4
   1.554261 1  CAC1C13x        Rx   d 8 A3 7D 10 FF FF FF FF FF
   1.555199 1  CAC1C80x        Rx   d 8 58 7D 10 FF FF FF FF FF
   1.556095 1  18FEF31Cx       Rx   d 8 95 4F 30 9A BF A7 BF 84
   1.556650 1  18FEE81Cx       Rx   d 8 B6 0C 04 00 5E 65 03 5A
   1.557204 1  18F6101Cx       Rx   d 8 AC A1 D2 13 19 26 82 D6
   1.557759 1  18F6181Cx       Rx   d 8 F1 27 9E 4E 24 71 06 5E
   1.558271 1  18F6191Cx       Rx   d 8 31 7B E3 C0 B1 CF 49 71
   1.558868 1  18F00B80x       Rx   d 8 07 7F 00 F1 FF FF FF FF
   1.559423 1  18F00B80x       Rx   d 8 73 7F 01 F1 FF FF FF FF
   1.560020 1  18F00B80x       Rx   d 8 00 7D 10 F1 FF FF FF FF
   1.560575 1  18F00B80x       Rx   d 8 00 7D 11 F1 FF FF FF FF
   1.561087 1  105             Rx   d 8 8E 08 FF FF FF FF FF FF
   1.561556 1  301             Rx   d 8 1E 0A 08 00 00 15 58 10
   1.562111 1  18F61A1Cx       Rx   d 8 5C D2 AD DD 32 B7 AB 0C
   1.562623 1  18F61B1Cx       Rx   d 8 C5 18 B9 0E F5 0E 39 88
   1.563177 1  18F61C1Cx       Rx   d 8 3A C3 55 85 2E D1 11 6E
   1.563732 1  CAD801Cx        Rx   d 8 80 7D FC FF FF FF FF FF
   1.564329 1  CFD431Cx        Rx   d 8 FF FF 88 13 FF FF FF FD
   1.564927 1  CAD131Cx        Rx   d 8 80 7D FC FF FF FF FF FF
   1.568553 1  18FEF1FBx       Rx   d 8 FF 00 00 FF FF FF FF FF
   1.569023 1  105             Rx   d 8 8E 08 FF FF FF FF FF FF
   1.571412 1  301             Rx   d 8 1E 0A 09 00 00 15 59 EC
   1.573374 1  18F6101Cx       Rx   d 8 3B 87 DD 10 7A CD 32 E1
   1.573929 1  18F6181Cx       Rx   d 8 DE 85 0D 17 57 B7 6F 84
   1.574484 1  18F6191Cx       Rx   d 8 56 65 48 70 19 AB 45 83
   1.574996 1  18F61A1Cx       Rx   d 8 A5 00 AC D3 94 A9 40 C5
   1.575550 1  18F61B1Cx       Rx   d 8 6E 5B F1 EC 84 89 20 10
   1.576105 1  18F61C1Cx       Rx   d 8 00 CE AD A9 0C 9A 67 DF
   1.578494 1  105             Rx   d 8 8E 08 FF FF FF FF FF FF
   1.579049 1  18F00B80x       Rx   d 8 07 7F 00 F1 FF FF FF FF
   1.579646 1  18F00B80x       Rx   d 8 73 7F 01 F1 FF FF FF FF
   1.580243 1  18F00B80x       Rx   d 8 00 7D 10 F1 FF FF FF FF
   1.580841 1  18F00B80x       Rx   d 8 00 7D 11 F1 FF FF FF FF
   1.581395 1  301             Rx   d 8 1E 0A 0A 00 00 15 59 A8
   1.586473 1  701             Rx   d 8 00 0B 00 02 A0 D9 08 00
   1.588478 1  105             Rx   d 8 8E 08 FF FF FF FF FF FF
   1.591336 1  301             Rx   d 8 1E 0A 0B 00 00 15 58 54
   1.593384 1  18F6101Cx       Rx   d 8 29 80 02 86 F7 69 42 92
   1.593939 1  18F6181Cx       Rx   d 8 1D 33 A8 69 66 D5 EC 6C
   1.594494 1  18F6191Cx       Rx   d 8 03 25 48 62 86 6F 1F AA
   1.595006 1  18F61A1Cx       Rx   d 8 84 D7 90 70 BA E1 84 F7
   1.595560 1  18F61B1Cx       Rx   d 8 00 4F 7B 54 B3 B3 67 B6
   1.596115 1  18F61C1Cx       Rx   d 8 8B 30 53 6D FF 76 72 6F
   1.598504 1  105             Rx   d 8 8E 08 FF FF FF FF FF FF
   1.599101 1  18F00B80x       Rx   d 8 07 7F 00 F1 FF FF FF FF
   1.599699 1  18F00B80x       Rx   d 8 73 7F 01 F1 FF FF FF FF
   1.600296 1  18F00B80x       Rx   d 8 00 7D 10 F1 FF FF FF FF
   1.600851 1  18F00B80x       Rx   d 8 00 7D 11 F1 FF FF FF FF
   1.601320 1  301             Rx   d 8 1D 0A 0C FF FF 15 28 D3
   1.601832 1  701             Rx   d 8 00 0A 00 02 16 72 00 00
   1.602301 1  701             Rx   d 8 01 0A 00 02 0C 00 00 00
   1.608488 1  105             Rx   d 8 8E 08 FF FF FF FF FF FF
   1.611261 1  301             Rx   d 8 1E 0A 0D 01 00 15 09 1C
   1.613394 1  18F6101Cx       Rx   d 8 C3 1A 06 E4 70 AB 35 5F
   1.613949 1  18F6181Cx       Rx   d 8 AE 05 C1 C6 39 40 51 04
   1.614503 1  18F6191Cx       Rx   d 8 84 98 0D 83 C5 A0 DD AB
   1.615015 1  18F61A1Cx       Rx   d 8 E0 C1 38 A1 61 17 70 89
   1.615570 1  18F61B1Cx       Rx   d 8 EB 6A 46 27 CC 7F 90 D1
   1.616167 1  18F61C1Cx       Rx   d 8 CF BC C4 07 C6 D6 5C 63
   1.618557 1  18FEF1FBx       Rx   d 8 FF 00 00 FF FF FF FF FF
   1.619026 1  105             Rx   d 8 8E 08 FF FF FF FF FF FF
   1.619623 1  18F00B80x       Rx   d 8 07 7F 00 F1 FF FF FF FF
   1.620221 1  18F00B80x       Rx   d 8 73 7F 01 F1 FF FF FF FF
   1.620775 1  18F00B80x       Rx   d 8 00 7D 10 F1 FF FF FF FF
   1.621245 1  301             Rx   d 8 1D 0A 0E FF FF 15 29 6B
   1.621842 1  18F00B80x       Rx   d 8 00 7D 11 F1 FF FF FF FF
   1.628498 1  105             Rx   d 8 8E 08 FF FF FF FF FF FF
   1.631185 1  301             Rx   d 8 1E 0A 0F 01 00 15 08 A4
   1.633361 1  18F6101Cx       Rx   d 8 6A F3 60 62 2B 08 CD 82
   1.633916 1  18F6181Cx       Rx   d 8 D7 F7 4C DA 3A 4E 3B 73
   1.634471 1  CAC1C13x        Rx   d 8 A3 7D 10 FF FF FF FF FF
   1.635025 1  18F6191Cx       Rx   d 8 4E 67 4C 07 13 6C C1 2A
   1.635580 1  CAC1C80x        Rx   d 8 58 7D 10 FF FF FF FF FF
   1.636135 1  18F61A1Cx       Rx   d 8 C0 1B 74 C7 EC 14 6D B8
   1.636647 1  18F61B1Cx       Rx   d 8 F0 A5 25 C3 2C D6 7F AB
   1.637201 1  18F61C1Cx       Rx   d 8 E4 9A 71 68 E7 B0 0C F2
   1.637671 1  701             Rx   d 8 00 0B 00 02 A0 D9 08 00
   1.638481 1  105             Rx   d 8 8E 08 FF FF FF FF FF FF
   1.639420 1  18F00B80x       Rx   d 8 07 7F 00 F1 FF FF FF FF
   1.640017 1  18F00B80x       Rx   d 8 73 7F 01 F1 FF FF FF FF
   1.640572 1  18F00B80x       Rx   d 8 00 7D 10 F1 FF FF FF FF
   1.641169 1  18F00B80x       Rx   d 8 00 7D 11 F1 FF FF FF FF
   1.641638 1  301             Rx   d 8 1D 0A 10 FF FF 15 2F 43
   1.648465 1  105             Rx   d 8 8E 08 FF FF FF FF FF FF
   1.651110 1  301             Rx   d 8 1D 0A 11 00 00 15 5F 7F
   1.653371 1  18FEF31Cx       Rx   d 8 94 4F 30 9A BF A7 BF 84
   1.653926 1  18FEE81Cx       Rx   d 8 B6 0C 04 00 5E 65 03 5A
   1.654481 1  18FEE61Cx       Rx   d 8 77 16 09 0A 16 23 00 00
   1.655035 1  18F6101Cx       Rx   d 8 21 3C 24 3A 2A 7A E0 1D
   1.655547 1  18F6181Cx       Rx   d 8 CC 62 C2 2C 81 19 0B 67
   1.656102 1  18F6191Cx       Rx   d 8 7E AC 7F F0 1E FC 6D 2F
   1.656657 1  18F61A1Cx       Rx   d 8 BE A8 FA F4 54 26 75 77
   1.657168 1  18F61B1Cx       Rx   d 8 E8 A3 E2 C0 7F 50 F1 83
   1.657723 1  18F61C1Cx       Rx   d 8 46 9F C5 BD 0E 28 9B 47
   1.658320 1  CAD801Cx        Rx   d 8 80 7D FC FF FF FF FF FF
   1.658790 1  105             Rx   d 8 8E 08 FF FF FF FF FF FF
   1.659387 1  CAD131Cx        Rx   d 8 80 7D FC FF FF FF FF FF
   1.659942 1  CFD431Cx        Rx   d 8 FF FF 88 13 FF FF FF FD
   1.660539 1  18F00B80x       Rx   d 8 07 7F 00 F1 FF FF FF FF
   1.661094 1  18F00B80x       Rx   d 8 73 7F 01 F1 FF FF FF FF
   1.661563 1  301             Rx   d 8 1E 0A 12 01 00 15 0E C8
   1.662160 1  18F00B80x       Rx   d 8 00 7D 10 F1 FF FF FF FF
   1.662758 1  18F00B80x       Rx   d 8 00 7D 11 F1 FF FF FF FF
   1.668731 1  18FEF1FBx       Rx   d 8 FF 00 00 FF FF FF FF FF
   1.669243 1  105             Rx   d 8 8E 08 FF FF FF FF FF FF
   1.671035 1  301             Rx   d 8 1D 0A 13 FF FF 15 2F 07
   1.673339 1  18F6101Cx       Rx   d 8 EE E8 6D 6B 3F 23 B4 F9
   1.673850 1  18F6181Cx       Rx   d 8 45 33 B9 C0 F1 EC 29 36
   1.674405 1  18F6191Cx       Rx   d 8 36 15 67 C2 71 95 1B 0A
   1.674960 1  18F61A1Cx       Rx   d 8 51 1D 53 63 96 7A 02 C9
   1.675472 1  18F61B1Cx       Rx   d 8 7E 3A 94 D6 75 86 1F 22
   1.676069 1  18F61C1Cx       Rx   d 8 81 D2 DF 18 4E 28 56 2D
   1.678501 1  105             Rx   d 8 8E 08 FF FF FF FF FF FF
   1.679866 1  18F00B80x       Rx   d 8 07 7F 00 F1 FF FF FF FF
   1.680421 1  18F00B80x       Rx   d 8 73 7F 01 F1 FF FF FF FF
   1.681018 1  18F00B80x       Rx   d 8 00 7D 10 F1 FF FF FF FF
   1.681488 1  301             Rx   d 8 1E 0A 14 01 00 15 0E 40
   1.682042 1  18F00B80x       Rx   d 8 00 7D 11 F1 FF FF FF FF
   1.687802 1  701             Rx   d 8 00 0B 00 02 A0 D9 08 00
   1.688527 1  105             Rx   d 8 8E 08 FF FF FF FF FF FF
   1.691002 1  301             Rx   d 8 1E 0A 15 00 00 15 5E 7C
   1.693348 1  18F6101Cx       Rx   d 8 8E AC 4E 7B 64 3A 28 28
   1.693860 1  18F6181Cx       Rx   d 8 A5 0E BE 31 5B 75 04 01
   1.694415 1  18F6191Cx       Rx   d 8 25 6E 45 96 30 B7 CC 2F
   1.694970 1  18F61A1Cx       Rx   d 8 FC 10 ED 80 28 F9 21 78
   1.695524 1  18F61B1Cx       Rx   d 8 7E 3A 94 D6 75 86 1F 22
   1.696079 1  18F61C1Cx       Rx   d 8 B4 6E B7 83 46 A1 05 B0
   1.698468 1  105             Rx   d 8 8E 08 FF FF FF FF FF FF
   1.700047 1  18F00B80x       Rx   d 8 07 7F 00 F1 FF FF FF FF
   1.700644 1  18F00B80x       Rx   d 8 73 7F 01 F1 FF FF FF FF
   1.701113 1  301             Rx   d 8 1D 0A 16 FF FF 15 2F CB
   1.701668 1  18F00B80x       Rx   d 8 00 7D 10 F1 FF FF FF FF
   1.702265 1  18F00B80x       Rx   d 8 00 7D 11 F1 FF FF FF FF
   1.708494 1  105             Rx   d 8 8E 08 FF FF FF FF FF FF
   1.710884 1  301             Rx   d 8 1E 0A 17 01 00 15 0E 04
   1.713316 1  18F6101Cx       Rx   d 8 E9 27 DD B5 AD 73 8C E3
   1.713870 1  18F6181Cx       Rx   d 8 7E 69 6B 37 2A F3 05 22
   1.714425 1  CAC1C13x        Rx   d 8 A3 7D 10 FF FF FF FF FF
   1.714980 1  18F6191Cx       Rx   d 8 9B 89 B6 73 C3 9F 50 FC
   1.715534 1  CAC1C80x        Rx   d 8 58 7D 10 FF FF FF FF FF
   1.716089 1  18F61A1Cx       Rx   d 8 3C 93 E6 C9 6E 55 4A 2C
   1.716601 1  18F61B1Cx       Rx   d 8 A5 AA 71 C7 EF E9 78 38
   1.717155 1  18F61C1Cx       Rx   d 8 F8 C5 9D 0E 91 D7 A1 CA
   1.718649 1  18FEF1FBx       Rx   d 8 FF 00 00 FF FF FF FF FF
   1.719118 1  105             Rx   d 8 8E 08 FF FF FF FF FF FF
   1.720270 1  18F00B80x       Rx   d 8 07 7F 00 F1 FF FF FF FF
   1.720867 1  18F00B80x       Rx   d 8 73 7F 01 F1 FF FF FF FF
   1.721337 1  301             Rx   d 8 1D 0A 18 FF FF 15 2D 23
   1.721891 1  18F00B80x       Rx   d 8 00 7D 10 F1 FF FF FF FF
   1.722489 1  18F00B80x       Rx   d 8 00 7D 11 F1 FF FF FF FF
   1.728504 1  105             Rx   d 8 8E 08 FF FF FF FF FF FF
   1.730808 1  301             Rx   d 8 1E 0A 19 01 00 15 0C EC
   1.734179 1  18FF0113x       Rx   d 7 AA 01 00 00 00 05 00
   1.738317 1  701             Rx   d 8 00 0B 00 02 A0 D9 08 00
   1.738829 1  105             Rx   d 8 8E 08 FF FF FF FF FF FF
   1.740536 1  18F00B80x       Rx   d 8 07 7F 00 F1 FF FF FF FF
   1.741005 1  301             Rx   d 8 1D 0A 1A FF FF 15 2C 9B
   1.741560 1  18F00B80x       Rx   d 8 73 7F 01 F1 FF FF FF FF
   1.742157 1  18F00B80x       Rx   d 8 00 7D 10 F1 FF FF FF FF
   1.742754 1  18F00B80x       Rx   d 8 00 7D 11 F1 FF FF FF FF
   1.748472 1  105             Rx   d 8 8E 08 FF FF FF FF FF FF
   1.749026 1  18F6101Cx       Rx   d 8 54 0E C8 7A 8E 27 9A 55
   1.749581 1  18F6181Cx       Rx   d 8 00 BA AA 5A 02 E5 26 13
   1.750093 1  18F6191Cx       Rx   d 8 6D 65 4C 11 38 8E 69 CE
   1.750647 1  18F61A1Cx       Rx   d 8 08 09 A4 94 B5 72 D0 B9
   1.751117 1  301             Rx   d 8 1E 0A 1B 01 00 15 0D 54
   1.751671 1  18F61B1Cx       Rx   d 8 7E 3A 94 D6 75 86 1F 22
   1.752183 1  18F61C1Cx       Rx   d 8 D6 42 39 51 C8 5F 34 5B
   1.753463 1  18FEF31Cx       Rx   d 8 94 4F 30 9A BF A7 BF 84
   1.754061 1  18FEE81Cx       Rx   d 8 B6 0C 04 00 5D 65 03 5A
   1.754573 1  18F6101Cx       Rx   d 8 54 0E C8 7A 8E 27 9A 55
   1.755127 1  18F6181Cx       Rx   d 8 00 BA AA 5A 02 E5 26 13
   1.755682 1  18F6191Cx       Rx   d 8 6D 65 4C 11 38 8E 69 CE
   1.756194 1  18F61A1Cx       Rx   d 8 08 09 A4 94 B5 72 D0 B9
   1.756749 1  18F61B1Cx       Rx   d 8 7E 3A 94 D6 75 86 1F 22
   1.757261 1  18F61C1Cx       Rx   d 8 D6 42 39 51 C8 5F 34 5B
   1.757858 1  CAD801Cx        Rx   d 8 80 7D FC FF FF FF FF FF
   1.758455 1  CFD431Cx        Rx   d 8 FF FF 88 13 FF FF FF FD
   1.759010 1  CAD131Cx        Rx   d 8 80 7D FC FF FF FF FF FF
   1.759522 1  105             Rx   d 8 8E 08 FF FF FF FF FF FF
   1.760759 1  18F00B80x       Rx   d 8 07 7F 00 F1 FF FF FF FF
   1.761228 1  301             Rx   d 8 1E 0A 1C 00 00 15 5D E0
   1.761783 1  18F00B80x       Rx   d 8 73 7F 01 F1 FF FF FF FF
   1.762380 1  18F00B80x       Rx   d 8 00 7D 10 F1 FF FF FF FF
   1.762978 1  18F00B80x       Rx   d 8 00 7D 11 F1 FF FF FF FF
   1.768524 1  18FEF1FBx       Rx   d 8 FF 00 00 FF FF FF FF FF
   1.769036 1  105             Rx   d 8 8E 08 FF FF FF FF FF FF
   1.770700 1  301             Rx   d 8 1E 0A 1D 00 00 15 5C 1C
   1.773473 1  18F6101Cx       Rx   d 8 47 5C 8A D1 41 AF 86 00
   1.774028 1  18F6181Cx       Rx   d 8 B4 F2 AE D0 36 D0 F0 A3
   1.774583 1  18F6191Cx       Rx   d 8 62 3B AE C8 0D CE 11 84
   1.775095 1  18F61A1Cx       Rx   d 8 DF A5 7F 17 82 EB A1 18
   1.775649 1  18F61B1Cx       Rx   d 8 02 94 E2 1A E7 98 19 33
   1.776161 1  18F61C1Cx       Rx   d 8 DE 98 7B DA C7 61 AF CD
   1.778508 1  105             Rx   d 8 8E 08 FF FF FF FF FF FF
   1.780641 1  301             Rx   d 8 1E 0A 1E 00 00 15 5C 58
   1.781238 1  18F00B80x       Rx   d 8 07 7F 00 F1 FF FF FF FF
   1.781793 1  18F00B80x       Rx   d 8 73 7F 01 F1 FF FF FF FF
   1.782390 1  18F00B80x       Rx   d 8 00 7D 10 F1 FF FF FF FF
   1.782988 1  18F00B80x       Rx   d 8 00 7D 11 F1 FF FF FF FF
   1.788918 1  701             Rx   d 8 00 0B 00 02 A0 D9 08 00
   1.789387 1  105             Rx   d 8 8E 08 FF FF FF FF FF FF
   1.790582 1  301             Rx   d 8 1D 0A 1F FF FF 15 2C 57
   1.793440 1  18F6101Cx       Rx   d 8 C1 5F 0E 6B 0F 4C D7 2C
   1.793995 1  CAC1C13x        Rx   d 8 A3 7D 10 FF FF FF FF FF
   1.794550 1  18F6181Cx       Rx   d 8 E4 5D C3 8E 40 92 3E C7
   1.795104 1  CAC1C80x        Rx   d 8 58 7D 10 FF FF FF FF FF
   1.795659 1  18F6191Cx       Rx   d 8 97 1A 85 60 C8 0E 74 98
   1.796214 1  18F61A1Cx       Rx   d 8 36 6D 37 3C 0A 47 96 7F
   1.796726 1  18F61B1Cx       Rx   d 8 26 CE A5 3D 85 90 34 59
   1.797280 1  18F61C1Cx       Rx   d 8 7A 50 64 9F 78 FE 09 A4
   1.798475 1  105             Rx   d 8 8E 08 FF FF FF FF FF FF
   1.800566 1  301             Rx   d 8 1D 0A 20 00 00 15 51 83
   1.801206 1  18F00B80x       Rx   d 8 07 7F 00 F1 FF FF FF FF
   1.801760 1  18F00B80x       Rx   d 8 73 7F 01 F1 FF FF FF FF
   1.802357 1  18F00B80x       Rx   d 8 00 7D 10 F1 FF FF FF FF
   1.802955 1  18F00B80x       Rx   d 8 00 7D 11 F1 FF FF FF FF
   1.808501 1  105             Rx   d 8 8E 08 FF FF FF FF FF FF
   1.810549 1  301             Rx   d 8 1E 0A 21 01 00 15 01 8C
   1.813450 1  18F6101Cx       Rx   d 8 3C 12 40 84 1F 07 10 79
   1.814048 1  18F6181Cx       Rx   d 8 05 45 2D 96 7D 5D 0A 5C
   1.814602 1  18F6191Cx       Rx   d 8 6F CF 23 66 AD 2A 72 B8
   1.815114 1  18F61A1Cx       Rx   d 8 FB 68 5B 95 FF 15 25 39
   1.815669 1  18F61B1Cx       Rx   d 8 BF 7D 48 B5 FD C2 4E 25
   1.816224 1  18F61C1Cx       Rx   d 8 98 A5 B1 F9 BF 89 47 A8
   1.818528 1  18FEF1FBx       Rx   d 8 FF 00 00 FF FF FF FF FF
   1.819039 1  105             Rx   d 8 8E 08 FF FF FF FF FF FF
   1.820490 1  301             Rx   d 8 1D 0A 22 FF FF 15 21 FB
   1.821855 1  18F00B80x       Rx   d 8 07 7F 00 F1 FF FF FF FF
   1.822410 1  18F00B80x       Rx   d 8 73 7F 01 F1 FF FF FF FF
   1.823007 1  18F00B80x       Rx   d 8 00 7D 10 F1 FF FF FF FF
   1.823605 1  18F00B80x       Rx   d 8 00 7D 11 F1 FF FF FF FF
   1.828468 1  105             Rx   d 8 8E 08 FF FF FF FF FF FF
   1.830431 1  301             Rx   d 8 1D 0A 23 00 00 15 51 C7
   1.833375 1  18F6101Cx       Rx   d 8 2D EC CF 90 A2 78 89 A5
   1.833930 1  18F6181Cx       Rx   d 8 51 26 46 A9 E3 D2 D4 7B
   1.834484 1  18F6191Cx       Rx   d 8 11 C3 95 A2 66 7F 52 3A
   1.834996 1  18F61A1Cx       Rx   d 8 FC FE 2B DA FC 59 A3 09
   1.835551 1  18F61B1Cx       Rx   d 8 1D 04 B5 FF C3 C0 C3 1E
   1.836105 1  18F61C1Cx       Rx   d 8 F1 49 5C 68 25 B7 A1 A3
   1.838495 1  105             Rx   d 8 8E 08 FF FF FF FF FF FF
   1.839476 1  701             Rx   d 8 00 0B 00 02 A0 D9 08 00
   1.840415 1  301             Rx   d 8 1D 0A 24 00 00 15 50 B3
   1.842079 1  18F00B80x       Rx   d 8 07 7F 00 F1 FF FF FF FF
   1.842676 1  18F00B80x       Rx   d 8 73 7F 01 F1 FF FF FF FF
   1.843231 1  18F00B80x       Rx   d 8 00 7D 10 F1 FF FF FF FF
   1.843828 1  18F00B80x       Rx   d 8 00 7D 11 F1 FF FF FF FF
   1.848478 1  105             Rx   d 8 8E 08 FF FF FF FF FF FF
   1.850398 1  301             Rx   d 8 1D 0A 25 00 00 15 51 4F
   1.851252 1  701             Rx   d 8 00 0A 00 02 16 72 00 00
   1.851764 1  701             Rx   d 8 01 0A 00 02 1F 00 00 00
   1.853427 1  18FEF31Cx       Rx   d 8 95 4F 30 9A BF A7 BF 84
   1.854067 1  18FEE81Cx       Rx   d 8 B6 0C 06 00 5C 65 03 5A
   1.854579 1  18F6101Cx       Rx   d 8 0A F6 69 93 4E E9 C8 BB
   1.855134 1  18F6181Cx       Rx   d 8 6D C6 8F EF 75 05 0D 58
   1.855689 1  18F6191Cx       Rx   d 8 3F D9 B8 1A 0E 21 C8 49
   1.856201 1  18F61A1Cx       Rx   d 8 9F 21 28 B1 D5 CA 4F B7
   1.856755 1  18F61B1Cx       Rx   d 8 89 20 A1 4D 12 63 6D DE
